xrun(64): 22.09-s003: (c) Copyright 1995-2022 Cadence Design Systems, Inc.
TOOL:	xrun(64)	22.09-s003: Started on Dec 27, 2024 at 16:46:53 IST
xrun
	-f compile_file.f
		../APB_RTL/APB_Master.v
		../uvm_testbench/apb_top/apb_interface.sv
		../uvm_testbench/apb_top/apb_test_pkg.sv
		../uvm_testbench/apb_test/apb_top.sv
	-uvmhome CDNS-1.1d
	+UVM_TESTNAME=apb_write_test
	-seed 1892
	-debug
	-access +rwc
	-covdut apb_master
	-covworkdir cov_work
	-logfile logs/20241227_164652_apb_write_test_1892/apb_write_test_None_20241227_164652.log
	+UVM_VERBOSITY=UVM_NONE
	-coverage all
	-covoverwrite

   User defined plus("+") options:
	+UVM_VERBOSITY=UVM_NONE

Loading snapshot worklib.apb_top:sv .................... Done
SVSEED set from command line: 1892
xmsim: *W,DSEM2009: This SystemVerilog design is simulated as per IEEE 1800-2009 SystemVerilog simulation semantics. Use -disable_sem2009 option for turning off SV 2009 simulation semantics.
xcelium> source /tools/cadence_march2021/XCELIUM2209/tools/xcelium/files/xmsimrc
xcelium> source /tools/cadence_march2021/XCELIUM2209/tools/methodology/UVM/CDNS-1.1d/additions/sv/files/tcl/uvm_sim.tcl
xcelium> run
----------------------------------------------------------------
CDNS-UVM-1.1d (22.09-s003)
(C) 2007-2013 Mentor Graphics Corporation
(C) 2007-2013 Cadence Design Systems, Inc.
(C) 2006-2013 Synopsys, Inc.
(C) 2011-2013 Cypress Semiconductor Corp.
----------------------------------------------------------------

  ***********       IMPORTANT RELEASE NOTES         ************

  You are using a version of the UVM library that has been compiled
  with `UVM_NO_DEPRECATED undefined.
  See http://www.eda.org/svdb/view.php?id=3313 for more details.

  You are using a version of the UVM library that has been compiled
  with `UVM_OBJECT_MUST_HAVE_CONSTRUCTOR undefined.
  See http://www.eda.org/svdb/view.php?id=3770 for more details.

      (Specify +UVM_NO_RELNOTES to turn off this notice)

UVM_INFO @ 0: reporter [RNTST] Running test apb_write_test...
the value of slave error is 1
-----------------------------------------------------------------------------------------
Name                           Type                  Size  Value                         
-----------------------------------------------------------------------------------------
write_transaction              apb_jtag_transaction  -     @4627                         
  transfer                     integral              1     'h1                           
  read                         integral              1     'h0                           
  write                        integral              1     'h1                           
  apb_paddr                    integral              32    'h164ebdc0                    
  apb_write_data               integral              32    'h672ced64                    
  prdata                       integral              32    'h0                           
  pready                       integral              1     'h0                           
  pslverr                      integral              1     'h0                           
  psel                         integral              1     'h0                           
  pwrite                       integral              1     'h0                           
  paddr                        integral              32    'h0                           
  pwdata                       integral              32    'h0                           
  apb_read_data_out            integral              32    'h0                           
  apb_read_data_valid          integral              1     'h0                           
  begin_time                   time                  64    30000                         
  depth                        int                   32    'd2                           
  parent sequence (name)       string                4     jseq                          
  parent sequence (full name)  string                30    uvm_test_top.env.apj.seqr.jseq
  sequencer                    string                25    uvm_test_top.env.apj.seqr     
-----------------------------------------------------------------------------------------
         0 -------------         0
-------------------------------------------------------------
Name                   Type                  Size  Value     
-------------------------------------------------------------
trans                  apb_jtag_transaction  -     @4660     
  transfer             integral              1     'h1       
  read                 integral              1     'h0       
  write                integral              1     'h1       
  apb_paddr            integral              32    'h164ebdc0
  apb_write_data       integral              32    'h672ced64
  prdata               integral              32    'h0       
  pready               integral              1     'h0       
  pslverr              integral              1     'h0       
  psel                 integral              1     'h1       
  pwrite               integral              1     'h0       
  paddr                integral              32    'h164ebdc0
  pwdata               integral              32    'h672ced64
  apb_read_data_out    integral              32    'h0       
  apb_read_data_valid  integral              1     'h0       
-------------------------------------------------------------
         0 -------------         0
-------------------------------------------------------------
Name                   Type                  Size  Value     
-------------------------------------------------------------
trans                  apb_jtag_transaction  -     @4719     
  transfer             integral              1     'h1       
  read                 integral              1     'h0       
  write                integral              1     'h1       
  apb_paddr            integral              32    'h164ebdc0
  apb_write_data       integral              32    'h672ced64
  prdata               integral              32    'h0       
  pready               integral              1     'h0       
  pslverr              integral              1     'h0       
  psel                 integral              1     'h1       
  pwrite               integral              1     'h0       
  paddr                integral              32    'h164ebdc0
  pwdata               integral              32    'h672ced64
  apb_read_data_out    integral              32    'h0       
  apb_read_data_valid  integral              1     'h0       
-------------------------------------------------------------
data written into slave at memory [164ebdc0] = 672ced64
         0 -------------         0
-------------------------------------------------------------
Name                   Type                  Size  Value     
-------------------------------------------------------------
trans                  apb_jtag_transaction  -     @4762     
  transfer             integral              1     'h1       
  read                 integral              1     'h0       
  write                integral              1     'h1       
  apb_paddr            integral              32    'h164ebdc0
  apb_write_data       integral              32    'h672ced64
  prdata               integral              32    'h0       
  pready               integral              1     'h0       
  pslverr              integral              1     'h1       
  psel                 integral              1     'h1       
  pwrite               integral              1     'h0       
  paddr                integral              32    'h164ebdc0
  pwdata               integral              32    'h672ced64
  apb_read_data_out    integral              32    'h0       
  apb_read_data_valid  integral              1     'h0       
-------------------------------------------------------------
the value of slave error is 1
-----------------------------------------------------------------------------------------
Name                           Type                  Size  Value                         
-----------------------------------------------------------------------------------------
write_transaction              apb_jtag_transaction  -     @4680                         
  transfer                     integral              1     'h1                           
  read                         integral              1     'h1                           
  write                        integral              1     'h0                           
  apb_paddr                    integral              32    'hc71ea8a6                    
  apb_write_data               integral              32    'h69ab090a                    
  prdata                       integral              32    'h0                           
  pready                       integral              1     'h0                           
  pslverr                      integral              1     'h0                           
  psel                         integral              1     'h0                           
  pwrite                       integral              1     'h0                           
  paddr                        integral              32    'h0                           
  pwdata                       integral              32    'h0                           
  apb_read_data_out            integral              32    'h0                           
  apb_read_data_valid          integral              1     'h0                           
  begin_time                   time                  64    150000                        
  depth                        int                   32    'd2                           
  parent sequence (name)       string                4     jseq                          
  parent sequence (full name)  string                30    uvm_test_top.env.apj.seqr.jseq
  sequencer                    string                25    uvm_test_top.env.apj.seqr     
-----------------------------------------------------------------------------------------
 368300094 ------------- 368300094
-------------------------------------------------------------
Name                   Type                  Size  Value     
-------------------------------------------------------------
trans                  apb_jtag_transaction  -     @4642     
  transfer             integral              1     'h1       
  read                 integral              1     'h1       
  write                integral              1     'h0       
  apb_paddr            integral              32    'hc71ea8a6
  apb_write_data       integral              32    'h69ab090a
  prdata               integral              32    'h15f3d03e
  pready               integral              1     'h0       
  pslverr              integral              1     'h0       
  psel                 integral              1     'h1       
  pwrite               integral              1     'h0       
  paddr                integral              32    'hc71ea8a6
  pwdata               integral              32    'h0       
  apb_read_data_out    integral              32    'h15f3d03e
  apb_read_data_valid  integral              1     'h0       
-------------------------------------------------------------
the value of slave error is 1
-----------------------------------------------------------------------------------------
Name                           Type                  Size  Value                         
-----------------------------------------------------------------------------------------
write_transaction              apb_jtag_transaction  -     @4712                         
  transfer                     integral              1     'h1                           
  read                         integral              1     'h0                           
  write                        integral              1     'h1                           
  apb_paddr                    integral              32    'hddf7f2b1                    
  apb_write_data               integral              32    'h683b68d8                    
  prdata                       integral              32    'h0                           
  pready                       integral              1     'h0                           
  pslverr                      integral              1     'h0                           
  psel                         integral              1     'h0                           
  pwrite                       integral              1     'h0                           
  paddr                        integral              32    'h0                           
  pwdata                       integral              32    'h0                           
  apb_read_data_out            integral              32    'h0                           
  apb_read_data_valid          integral              1     'h0                           
  begin_time                   time                  64    230000                        
  depth                        int                   32    'd2                           
  parent sequence (name)       string                4     jseq                          
  parent sequence (full name)  string                30    uvm_test_top.env.apj.seqr.jseq
  sequencer                    string                25    uvm_test_top.env.apj.seqr     
-----------------------------------------------------------------------------------------
 368300094 -------------         0
-------------------------------------------------------------
Name                   Type                  Size  Value     
-------------------------------------------------------------
trans                  apb_jtag_transaction  -     @4782     
  transfer             integral              1     'h1       
  read                 integral              1     'h0       
  write                integral              1     'h1       
  apb_paddr            integral              32    'hddf7f2b1
  apb_write_data       integral              32    'h683b68d8
  prdata               integral              32    'h0       
  pready               integral              1     'h0       
  pslverr              integral              1     'h0       
  psel                 integral              1     'h1       
  pwrite               integral              1     'h0       
  paddr                integral              32    'hddf7f2b1
  pwdata               integral              32    'h683b68d8
  apb_read_data_out    integral              32    'h0       
  apb_read_data_valid  integral              1     'h0       
-------------------------------------------------------------
data written into slave at memory [ddf7f2b1] = 683b68d8
the value of slave error is 0
-----------------------------------------------------------------------------------------
Name                           Type                  Size  Value                         
-----------------------------------------------------------------------------------------
write_transaction              apb_jtag_transaction  -     @4763                         
  transfer                     integral              1     'h1                           
  read                         integral              1     'h1                           
  write                        integral              1     'h0                           
  apb_paddr                    integral              32    'hcde96b01                    
  apb_write_data               integral              32    'h3d1a66dd                    
  prdata                       integral              32    'h0                           
  pready                       integral              1     'h0                           
  pslverr                      integral              1     'h0                           
  psel                         integral              1     'h0                           
  pwrite                       integral              1     'h0                           
  paddr                        integral              32    'h0                           
  pwdata                       integral              32    'h0                           
  apb_read_data_out            integral              32    'h0                           
  apb_read_data_valid          integral              1     'h0                           
  begin_time                   time                  64    270000                        
  depth                        int                   32    'd2                           
  parent sequence (name)       string                4     jseq                          
  parent sequence (full name)  string                30    uvm_test_top.env.apj.seqr.jseq
  sequencer                    string                25    uvm_test_top.env.apj.seqr     
-----------------------------------------------------------------------------------------
 368300094 ------------- 368300094
-------------------------------------------------------------
Name                   Type                  Size  Value     
-------------------------------------------------------------
trans                  apb_jtag_transaction  -     @4670     
  transfer             integral              1     'h1       
  read                 integral              1     'h1       
  write                integral              1     'h0       
  apb_paddr            integral              32    'hcde96b01
  apb_write_data       integral              32    'h3d1a66dd
  prdata               integral              32    'h15f3d03e
  pready               integral              1     'h0       
  pslverr              integral              1     'h0       
  psel                 integral              1     'h1       
  pwrite               integral              1     'h0       
  paddr                integral              32    'hcde96b01
  pwdata               integral              32    'h0       
  apb_read_data_out    integral              32    'h15f3d03e
  apb_read_data_valid  integral              1     'h0       
-------------------------------------------------------------
the value of slave error is 1
-----------------------------------------------------------------------------------------
Name                           Type                  Size  Value                         
-----------------------------------------------------------------------------------------
write_transaction              apb_jtag_transaction  -     @4751                         
  transfer                     integral              1     'h1                           
  read                         integral              1     'h0                           
  write                        integral              1     'h1                           
  apb_paddr                    integral              32    'hf39c2470                    
  apb_write_data               integral              32    'h35d4265c                    
  prdata                       integral              32    'h0                           
  pready                       integral              1     'h0                           
  pslverr                      integral              1     'h0                           
  psel                         integral              1     'h0                           
  pwrite                       integral              1     'h0                           
  paddr                        integral              32    'h0                           
  pwdata                       integral              32    'h0                           
  apb_read_data_out            integral              32    'h0                           
  apb_read_data_valid          integral              1     'h0                           
  begin_time                   time                  64    310000                        
  depth                        int                   32    'd2                           
  parent sequence (name)       string                4     jseq                          
  parent sequence (full name)  string                30    uvm_test_top.env.apj.seqr.jseq
  sequencer                    string                25    uvm_test_top.env.apj.seqr     
-----------------------------------------------------------------------------------------
 843014067 -------------         0
-------------------------------------------------------------
Name                   Type                  Size  Value     
-------------------------------------------------------------
trans                  apb_jtag_transaction  -     @4684     
  transfer             integral              1     'h1       
  read                 integral              1     'h0       
  write                integral              1     'h1       
  apb_paddr            integral              32    'hf39c2470
  apb_write_data       integral              32    'h35d4265c
  prdata               integral              32    'h0       
  pready               integral              1     'h0       
  pslverr              integral              1     'h0       
  psel                 integral              1     'h1       
  pwrite               integral              1     'h0       
  paddr                integral              32    'hf39c2470
  pwdata               integral              32    'h35d4265c
  apb_read_data_out    integral              32    'h0       
  apb_read_data_valid  integral              1     'h0       
-------------------------------------------------------------
 843014067 -------------         0
-------------------------------------------------------------
Name                   Type                  Size  Value     
-------------------------------------------------------------
trans                  apb_jtag_transaction  -     @4733     
  transfer             integral              1     'h1       
  read                 integral              1     'h0       
  write                integral              1     'h1       
  apb_paddr            integral              32    'hf39c2470
  apb_write_data       integral              32    'h35d4265c
  prdata               integral              32    'h0       
  pready               integral              1     'h0       
  pslverr              integral              1     'h0       
  psel                 integral              1     'h1       
  pwrite               integral              1     'h0       
  paddr                integral              32    'hf39c2470
  pwdata               integral              32    'h35d4265c
  apb_read_data_out    integral              32    'h0       
  apb_read_data_valid  integral              1     'h0       
-------------------------------------------------------------
data written into slave at memory [f39c2470] = 35d4265c
 843014067 -------------         0
-------------------------------------------------------------
Name                   Type                  Size  Value     
-------------------------------------------------------------
trans                  apb_jtag_transaction  -     @4727     
  transfer             integral              1     'h1       
  read                 integral              1     'h0       
  write                integral              1     'h1       
  apb_paddr            integral              32    'hf39c2470
  apb_write_data       integral              32    'h35d4265c
  prdata               integral              32    'h0       
  pready               integral              1     'h0       
  pslverr              integral              1     'h0       
  psel                 integral              1     'h1       
  pwrite               integral              1     'h0       
  paddr                integral              32    'hf39c2470
  pwdata               integral              32    'h35d4265c
  apb_read_data_out    integral              32    'h0       
  apb_read_data_valid  integral              1     'h0       
-------------------------------------------------------------
the value of slave error is 0
-----------------------------------------------------------------------------------------
Name                           Type                  Size  Value                         
-----------------------------------------------------------------------------------------
write_transaction              apb_jtag_transaction  -     @4720                         
  transfer                     integral              1     'h1                           
  read                         integral              1     'h1                           
  write                        integral              1     'h0                           
  apb_paddr                    integral              32    'hf3ac84ea                    
  apb_write_data               integral              32    'h798fd63d                    
  prdata                       integral              32    'h0                           
  pready                       integral              1     'h0                           
  pslverr                      integral              1     'h0                           
  psel                         integral              1     'h0                           
  pwrite                       integral              1     'h0                           
  paddr                        integral              32    'h0                           
  pwdata                       integral              32    'h0                           
  apb_read_data_out            integral              32    'h0                           
  apb_read_data_valid          integral              1     'h0                           
  begin_time                   time                  64    430000                        
  depth                        int                   32    'd2                           
  parent sequence (name)       string                4     jseq                          
  parent sequence (full name)  string                30    uvm_test_top.env.apj.seqr.jseq
  sequencer                    string                25    uvm_test_top.env.apj.seqr     
-----------------------------------------------------------------------------------------
3286183409 -------------3286183409
-------------------------------------------------------------
Name                   Type                  Size  Value     
-------------------------------------------------------------
trans                  apb_jtag_transaction  -     @4687     
  transfer             integral              1     'h1       
  read                 integral              1     'h1       
  write                integral              1     'h0       
  apb_paddr            integral              32    'hf3ac84ea
  apb_write_data       integral              32    'h798fd63d
  prdata               integral              32    'hc3df2df1
  pready               integral              1     'h0       
  pslverr              integral              1     'h0       
  psel                 integral              1     'h1       
  pwrite               integral              1     'h0       
  paddr                integral              32    'hf3ac84ea
  pwdata               integral              32    'h0       
  apb_read_data_out    integral              32    'hc3df2df1
  apb_read_data_valid  integral              1     'h0       
-------------------------------------------------------------
the value of slave error is 1
-----------------------------------------------------------------------------------------
Name                           Type                  Size  Value                         
-----------------------------------------------------------------------------------------
write_transaction              apb_jtag_transaction  -     @4775                         
  transfer                     integral              1     'h1                           
  read                         integral              1     'h0                           
  write                        integral              1     'h1                           
  apb_paddr                    integral              32    'h4afb8dd7                    
  apb_write_data               integral              32    'h97a4ec75                    
  prdata                       integral              32    'h0                           
  pready                       integral              1     'h0                           
  pslverr                      integral              1     'h0                           
  psel                         integral              1     'h0                           
  pwrite                       integral              1     'h0                           
  paddr                        integral              32    'h0                           
  pwdata                       integral              32    'h0                           
  apb_read_data_out            integral              32    'h0                           
  apb_read_data_valid          integral              1     'h0                           
  begin_time                   time                  64    550000                        
  depth                        int                   32    'd2                           
  parent sequence (name)       string                4     jseq                          
  parent sequence (full name)  string                30    uvm_test_top.env.apj.seqr.jseq
  sequencer                    string                25    uvm_test_top.env.apj.seqr     
-----------------------------------------------------------------------------------------
3286183409 -------------         0
-------------------------------------------------------------
Name                   Type                  Size  Value     
-------------------------------------------------------------
trans                  apb_jtag_transaction  -     @4702     
  transfer             integral              1     'h1       
  read                 integral              1     'h0       
  write                integral              1     'h1       
  apb_paddr            integral              32    'h4afb8dd7
  apb_write_data       integral              32    'h97a4ec75
  prdata               integral              32    'h0       
  pready               integral              1     'h0       
  pslverr              integral              1     'h0       
  psel                 integral              1     'h1       
  pwrite               integral              1     'h0       
  paddr                integral              32    'h4afb8dd7
  pwdata               integral              32    'h97a4ec75
  apb_read_data_out    integral              32    'h0       
  apb_read_data_valid  integral              1     'h0       
-------------------------------------------------------------
3286183409 -------------         0
-------------------------------------------------------------
Name                   Type                  Size  Value     
-------------------------------------------------------------
trans                  apb_jtag_transaction  -     @4807     
  transfer             integral              1     'h1       
  read                 integral              1     'h0       
  write                integral              1     'h1       
  apb_paddr            integral              32    'h4afb8dd7
  apb_write_data       integral              32    'h97a4ec75
  prdata               integral              32    'h0       
  pready               integral              1     'h0       
  pslverr              integral              1     'h0       
  psel                 integral              1     'h1       
  pwrite               integral              1     'h0       
  paddr                integral              32    'h4afb8dd7
  pwdata               integral              32    'h97a4ec75
  apb_read_data_out    integral              32    'h0       
  apb_read_data_valid  integral              1     'h0       
-------------------------------------------------------------
data written into slave at memory [4afb8dd7] = 97a4ec75
3286183409 -------------         0
-------------------------------------------------------------
Name                   Type                  Size  Value     
-------------------------------------------------------------
trans                  apb_jtag_transaction  -     @4752     
  transfer             integral              1     'h1       
  read                 integral              1     'h0       
  write                integral              1     'h1       
  apb_paddr            integral              32    'h4afb8dd7
  apb_write_data       integral              32    'h97a4ec75
  prdata               integral              32    'h0       
  pready               integral              1     'h0       
  pslverr              integral              1     'h0       
  psel                 integral              1     'h1       
  pwrite               integral              1     'h0       
  paddr                integral              32    'h4afb8dd7
  pwdata               integral              32    'h97a4ec75
  apb_read_data_out    integral              32    'h0       
  apb_read_data_valid  integral              1     'h0       
-------------------------------------------------------------
the value of slave error is 0
-----------------------------------------------------------------------------------------
Name                           Type                  Size  Value                         
-----------------------------------------------------------------------------------------
write_transaction              apb_jtag_transaction  -     @4692                         
  transfer                     integral              1     'h1                           
  read                         integral              1     'h0                           
  write                        integral              1     'h1                           
  apb_paddr                    integral              32    'h13a4334b                    
  apb_write_data               integral              32    'ha4b038a8                    
  prdata                       integral              32    'h0                           
  pready                       integral              1     'h0                           
  pslverr                      integral              1     'h0                           
  psel                         integral              1     'h0                           
  pwrite                       integral              1     'h0                           
  paddr                        integral              32    'h0                           
  pwdata                       integral              32    'h0                           
  apb_read_data_out            integral              32    'h0                           
  apb_read_data_valid          integral              1     'h0                           
  begin_time                   time                  64    650000                        
  depth                        int                   32    'd2                           
  parent sequence (name)       string                4     jseq                          
  parent sequence (full name)  string                30    uvm_test_top.env.apj.seqr.jseq
  sequencer                    string                25    uvm_test_top.env.apj.seqr     
-----------------------------------------------------------------------------------------
data written into slave at memory [13a4334b] = a4b038a8
3286183409 -------------         0
-------------------------------------------------------------
Name                   Type                  Size  Value     
-------------------------------------------------------------
trans                  apb_jtag_transaction  -     @4782     
  transfer             integral              1     'h1       
  read                 integral              1     'h0       
  write                integral              1     'h1       
  apb_paddr            integral              32    'h13a4334b
  apb_write_data       integral              32    'ha4b038a8
  prdata               integral              32    'h0       
  pready               integral              1     'h0       
  pslverr              integral              1     'h0       
  psel                 integral              1     'h1       
  pwrite               integral              1     'h0       
  paddr                integral              32    'h13a4334b
  pwdata               integral              32    'ha4b038a8
  apb_read_data_out    integral              32    'h0       
  apb_read_data_valid  integral              1     'h0       
-------------------------------------------------------------
the value of slave error is 0
-----------------------------------------------------------------------------------------
Name                           Type                  Size  Value                         
-----------------------------------------------------------------------------------------
write_transaction              apb_jtag_transaction  -     @4698                         
  transfer                     integral              1     'h1                           
  read                         integral              1     'h1                           
  write                        integral              1     'h0                           
  apb_paddr                    integral              32    'hebcac943                    
  apb_write_data               integral              32    'h5e5b3fdb                    
  prdata                       integral              32    'h0                           
  pready                       integral              1     'h0                           
  pslverr                      integral              1     'h0                           
  psel                         integral              1     'h0                           
  pwrite                       integral              1     'h0                           
  paddr                        integral              32    'h0                           
  pwdata                       integral              32    'h0                           
  apb_read_data_out            integral              32    'h0                           
  apb_read_data_valid          integral              1     'h0                           
  begin_time                   time                  64    690000                        
  depth                        int                   32    'd2                           
  parent sequence (name)       string                4     jseq                          
  parent sequence (full name)  string                30    uvm_test_top.env.apj.seqr.jseq
  sequencer                    string                25    uvm_test_top.env.apj.seqr     
-----------------------------------------------------------------------------------------
 995075388 ------------- 995075388
-------------------------------------------------------------
Name                   Type                  Size  Value     
-------------------------------------------------------------
trans                  apb_jtag_transaction  -     @4727     
  transfer             integral              1     'h1       
  read                 integral              1     'h1       
  write                integral              1     'h0       
  apb_paddr            integral              32    'hebcac943
  apb_write_data       integral              32    'h5e5b3fdb
  prdata               integral              32    'h3b4fa53c
  pready               integral              1     'h0       
  pslverr              integral              1     'h0       
  psel                 integral              1     'h1       
  pwrite               integral              1     'h0       
  paddr                integral              32    'hebcac943
  pwdata               integral              32    'h0       
  apb_read_data_out    integral              32    'h3b4fa53c
  apb_read_data_valid  integral              1     'h0       
-------------------------------------------------------------
the value of slave error is 0
-----------------------------------------------------------------------------------------
Name                           Type                  Size  Value                         
-----------------------------------------------------------------------------------------
write_transaction              apb_jtag_transaction  -     @4668                         
  transfer                     integral              1     'h1                           
  read                         integral              1     'h0                           
  write                        integral              1     'h1                           
  apb_paddr                    integral              32    'h3726e90                     
  apb_write_data               integral              32    'hd5fb1b6a                    
  prdata                       integral              32    'h0                           
  pready                       integral              1     'h0                           
  pslverr                      integral              1     'h0                           
  psel                         integral              1     'h0                           
  pwrite                       integral              1     'h0                           
  paddr                        integral              32    'h0                           
  pwdata                       integral              32    'h0                           
  apb_read_data_out            integral              32    'h0                           
  apb_read_data_valid          integral              1     'h0                           
  begin_time                   time                  64    750000                        
  depth                        int                   32    'd2                           
  parent sequence (name)       string                4     jseq                          
  parent sequence (full name)  string                30    uvm_test_top.env.apj.seqr.jseq
  sequencer                    string                25    uvm_test_top.env.apj.seqr     
-----------------------------------------------------------------------------------------
 995075388 -------------         0
-------------------------------------------------------------
Name                   Type                  Size  Value     
-------------------------------------------------------------
trans                  apb_jtag_transaction  -     @4632     
  transfer             integral              1     'h1       
  read                 integral              1     'h0       
  write                integral              1     'h1       
  apb_paddr            integral              32    'h3726e90 
  apb_write_data       integral              32    'hd5fb1b6a
  prdata               integral              32    'h0       
  pready               integral              1     'h0       
  pslverr              integral              1     'h0       
  psel                 integral              1     'h1       
  pwrite               integral              1     'h0       
  paddr                integral              32    'h3726e90 
  pwdata               integral              32    'hd5fb1b6a
  apb_read_data_out    integral              32    'h0       
  apb_read_data_valid  integral              1     'h0       
-------------------------------------------------------------
data written into slave at memory [03726e90] = d5fb1b6a
the value of slave error is 0
-----------------------------------------------------------------------------------------
Name                           Type                  Size  Value                         
-----------------------------------------------------------------------------------------
write_transaction              apb_jtag_transaction  -     @4706                         
  transfer                     integral              1     'h1                           
  read                         integral              1     'h1                           
  write                        integral              1     'h0                           
  apb_paddr                    integral              32    'h6644a159                    
  apb_write_data               integral              32    'ha7bad51e                    
  prdata                       integral              32    'h0                           
  pready                       integral              1     'h0                           
  pslverr                      integral              1     'h0                           
  psel                         integral              1     'h0                           
  pwrite                       integral              1     'h0                           
  paddr                        integral              32    'h0                           
  pwdata                       integral              32    'h0                           
  apb_read_data_out            integral              32    'h0                           
  apb_read_data_valid          integral              1     'h0                           
  begin_time                   time                  64    790000                        
  depth                        int                   32    'd2                           
  parent sequence (name)       string                4     jseq                          
  parent sequence (full name)  string                30    uvm_test_top.env.apj.seqr.jseq
  sequencer                    string                25    uvm_test_top.env.apj.seqr     
-----------------------------------------------------------------------------------------
 995075388 ------------- 995075388
-------------------------------------------------------------
Name                   Type                  Size  Value     
-------------------------------------------------------------
trans                  apb_jtag_transaction  -     @4709     
  transfer             integral              1     'h1       
  read                 integral              1     'h1       
  write                integral              1     'h0       
  apb_paddr            integral              32    'h6644a159
  apb_write_data       integral              32    'ha7bad51e
  prdata               integral              32    'h3b4fa53c
  pready               integral              1     'h0       
  pslverr              integral              1     'h0       
  psel                 integral              1     'h1       
  pwrite               integral              1     'h0       
  paddr                integral              32    'h6644a159
  pwdata               integral              32    'h0       
  apb_read_data_out    integral              32    'h3b4fa53c
  apb_read_data_valid  integral              1     'h0       
-------------------------------------------------------------
the value of slave error is 0
-----------------------------------------------------------------------------------------
Name                           Type                  Size  Value                         
-----------------------------------------------------------------------------------------
write_transaction              apb_jtag_transaction  -     @4713                         
  transfer                     integral              1     'h1                           
  read                         integral              1     'h1                           
  write                        integral              1     'h0                           
  apb_paddr                    integral              32    'h871fd2fe                    
  apb_write_data               integral              32    'hff2e88df                    
  prdata                       integral              32    'h0                           
  pready                       integral              1     'h0                           
  pslverr                      integral              1     'h0                           
  psel                         integral              1     'h0                           
  pwrite                       integral              1     'h0                           
  paddr                        integral              32    'h0                           
  pwdata                       integral              32    'h0                           
  apb_read_data_out            integral              32    'h0                           
  apb_read_data_valid          integral              1     'h0                           
  begin_time                   time                  64    830000                        
  depth                        int                   32    'd2                           
  parent sequence (name)       string                4     jseq                          
  parent sequence (full name)  string                30    uvm_test_top.env.apj.seqr.jseq
  sequencer                    string                25    uvm_test_top.env.apj.seqr     
-----------------------------------------------------------------------------------------
  62721663 -------------  62721663
-------------------------------------------------------------
Name                   Type                  Size  Value     
-------------------------------------------------------------
trans                  apb_jtag_transaction  -     @4647     
  transfer             integral              1     'h1       
  read                 integral              1     'h1       
  write                integral              1     'h0       
  apb_paddr            integral              32    'h871fd2fe
  apb_write_data       integral              32    'hff2e88df
  prdata               integral              32    'h3bd0e7f 
  pready               integral              1     'h0       
  pslverr              integral              1     'h0       
  psel                 integral              1     'h1       
  pwrite               integral              1     'h0       
  paddr                integral              32    'h871fd2fe
  pwdata               integral              32    'h0       
  apb_read_data_out    integral              32    'h3bd0e7f 
  apb_read_data_valid  integral              1     'h0       
-------------------------------------------------------------
the value of slave error is 1
-----------------------------------------------------------------------------------------
Name                           Type                  Size  Value                         
-----------------------------------------------------------------------------------------
write_transaction              apb_jtag_transaction  -     @4774                         
  transfer                     integral              1     'h1                           
  read                         integral              1     'h0                           
  write                        integral              1     'h1                           
  apb_paddr                    integral              32    'hedc391ce                    
  apb_write_data               integral              32    'h7f266f17                    
  prdata                       integral              32    'h0                           
  pready                       integral              1     'h0                           
  pslverr                      integral              1     'h0                           
  psel                         integral              1     'h0                           
  pwrite                       integral              1     'h0                           
  paddr                        integral              32    'h0                           
  pwdata                       integral              32    'h0                           
  apb_read_data_out            integral              32    'h0                           
  apb_read_data_valid          integral              1     'h0                           
  begin_time                   time                  64    910000                        
  depth                        int                   32    'd2                           
  parent sequence (name)       string                4     jseq                          
  parent sequence (full name)  string                30    uvm_test_top.env.apj.seqr.jseq
  sequencer                    string                25    uvm_test_top.env.apj.seqr     
-----------------------------------------------------------------------------------------
  62721663 -------------         0
-------------------------------------------------------------
Name                   Type                  Size  Value     
-------------------------------------------------------------
trans                  apb_jtag_transaction  -     @4796     
  transfer             integral              1     'h1       
  read                 integral              1     'h0       
  write                integral              1     'h1       
  apb_paddr            integral              32    'hedc391ce
  apb_write_data       integral              32    'h7f266f17
  prdata               integral              32    'h0       
  pready               integral              1     'h0       
  pslverr              integral              1     'h0       
  psel                 integral              1     'h1       
  pwrite               integral              1     'h0       
  paddr                integral              32    'hedc391ce
  pwdata               integral              32    'h7f266f17
  apb_read_data_out    integral              32    'h0       
  apb_read_data_valid  integral              1     'h0       
-------------------------------------------------------------
  62721663 -------------         0
-------------------------------------------------------------
Name                   Type                  Size  Value     
-------------------------------------------------------------
trans                  apb_jtag_transaction  -     @4700     
  transfer             integral              1     'h1       
  read                 integral              1     'h0       
  write                integral              1     'h1       
  apb_paddr            integral              32    'hedc391ce
  apb_write_data       integral              32    'h7f266f17
  prdata               integral              32    'h0       
  pready               integral              1     'h0       
  pslverr              integral              1     'h0       
  psel                 integral              1     'h1       
  pwrite               integral              1     'h0       
  paddr                integral              32    'hedc391ce
  pwdata               integral              32    'h7f266f17
  apb_read_data_out    integral              32    'h0       
  apb_read_data_valid  integral              1     'h0       
-------------------------------------------------------------
  62721663 -------------         0
-------------------------------------------------------------
Name                   Type                  Size  Value     
-------------------------------------------------------------
trans                  apb_jtag_transaction  -     @4666     
  transfer             integral              1     'h1       
  read                 integral              1     'h0       
  write                integral              1     'h1       
  apb_paddr            integral              32    'hedc391ce
  apb_write_data       integral              32    'h7f266f17
  prdata               integral              32    'h0       
  pready               integral              1     'h0       
  pslverr              integral              1     'h0       
  psel                 integral              1     'h1       
  pwrite               integral              1     'h0       
  paddr                integral              32    'hedc391ce
  pwdata               integral              32    'h7f266f17
  apb_read_data_out    integral              32    'h0       
  apb_read_data_valid  integral              1     'h0       
-------------------------------------------------------------
data written into slave at memory [edc391ce] = 7f266f17
  62721663 -------------         0
-------------------------------------------------------------
Name                   Type                  Size  Value     
-------------------------------------------------------------
trans                  apb_jtag_transaction  -     @4739     
  transfer             integral              1     'h1       
  read                 integral              1     'h0       
  write                integral              1     'h1       
  apb_paddr            integral              32    'hedc391ce
  apb_write_data       integral              32    'h7f266f17
  prdata               integral              32    'h0       
  pready               integral              1     'h0       
  pslverr              integral              1     'h0       
  psel                 integral              1     'h1       
  pwrite               integral              1     'h0       
  paddr                integral              32    'hedc391ce
  pwdata               integral              32    'h7f266f17
  apb_read_data_out    integral              32    'h0       
  apb_read_data_valid  integral              1     'h0       
-------------------------------------------------------------
the value of slave error is 0
-----------------------------------------------------------------------------------------
Name                           Type                  Size  Value                         
-----------------------------------------------------------------------------------------
write_transaction              apb_jtag_transaction  -     @4736                         
  transfer                     integral              1     'h1                           
  read                         integral              1     'h1                           
  write                        integral              1     'h0                           
  apb_paddr                    integral              32    'hd533f6                      
  apb_write_data               integral              32    'hdc1ea19c                    
  prdata                       integral              32    'h0                           
  pready                       integral              1     'h0                           
  pslverr                      integral              1     'h0                           
  psel                         integral              1     'h0                           
  pwrite                       integral              1     'h0                           
  paddr                        integral              32    'h0                           
  pwdata                       integral              32    'h0                           
  apb_read_data_out            integral              32    'h0                           
  apb_read_data_valid          integral              1     'h0                           
  begin_time                   time                  64    1070000                       
  depth                        int                   32    'd2                           
  parent sequence (name)       string                4     jseq                          
  parent sequence (full name)  string                30    uvm_test_top.env.apj.seqr.jseq
  sequencer                    string                25    uvm_test_top.env.apj.seqr     
-----------------------------------------------------------------------------------------
  62721663 -------------  62721663
-------------------------------------------------------------
Name                   Type                  Size  Value     
-------------------------------------------------------------
trans                  apb_jtag_transaction  -     @4697     
  transfer             integral              1     'h1       
  read                 integral              1     'h1       
  write                integral              1     'h0       
  apb_paddr            integral              32    'hd533f6  
  apb_write_data       integral              32    'hdc1ea19c
  prdata               integral              32    'h3bd0e7f 
  pready               integral              1     'h0       
  pslverr              integral              1     'h0       
  psel                 integral              1     'h1       
  pwrite               integral              1     'h0       
  paddr                integral              32    'hd533f6  
  pwdata               integral              32    'h0       
  apb_read_data_out    integral              32    'h3bd0e7f 
  apb_read_data_valid  integral              1     'h0       
-------------------------------------------------------------
the value of slave error is 0
-----------------------------------------------------------------------------------------
Name                           Type                  Size  Value                         
-----------------------------------------------------------------------------------------
write_transaction              apb_jtag_transaction  -     @4773                         
  transfer                     integral              1     'h1                           
  read                         integral              1     'h1                           
  write                        integral              1     'h0                           
  apb_paddr                    integral              32    'h987eaf47                    
  apb_write_data               integral              32    'h2aafab2c                    
  prdata                       integral              32    'h0                           
  pready                       integral              1     'h0                           
  pslverr                      integral              1     'h0                           
  psel                         integral              1     'h0                           
  pwrite                       integral              1     'h0                           
  paddr                        integral              32    'h0                           
  pwdata                       integral              32    'h0                           
  apb_read_data_out            integral              32    'h0                           
  apb_read_data_valid          integral              1     'h0                           
  begin_time                   time                  64    1110000                       
  depth                        int                   32    'd2                           
  parent sequence (name)       string                4     jseq                          
  parent sequence (full name)  string                30    uvm_test_top.env.apj.seqr.jseq
  sequencer                    string                25    uvm_test_top.env.apj.seqr     
-----------------------------------------------------------------------------------------
3347125811 -------------3347125811
-------------------------------------------------------------
Name                   Type                  Size  Value     
-------------------------------------------------------------
trans                  apb_jtag_transaction  -     @4706     
  transfer             integral              1     'h1       
  read                 integral              1     'h1       
  write                integral              1     'h0       
  apb_paddr            integral              32    'h987eaf47
  apb_write_data       integral              32    'h2aafab2c
  prdata               integral              32    'hc7811633
  pready               integral              1     'h0       
  pslverr              integral              1     'h0       
  psel                 integral              1     'h1       
  pwrite               integral              1     'h0       
  paddr                integral              32    'h987eaf47
  pwdata               integral              32    'h0       
  apb_read_data_out    integral              32    'hc7811633
  apb_read_data_valid  integral              1     'h0       
-------------------------------------------------------------
the value of slave error is 1
-----------------------------------------------------------------------------------------
Name                           Type                  Size  Value                         
-----------------------------------------------------------------------------------------
write_transaction              apb_jtag_transaction  -     @4716                         
  transfer                     integral              1     'h1                           
  read                         integral              1     'h1                           
  write                        integral              1     'h0                           
  apb_paddr                    integral              32    'hc0a6689d                    
  apb_write_data               integral              32    'h44c54f32                    
  prdata                       integral              32    'h0                           
  pready                       integral              1     'h0                           
  pslverr                      integral              1     'h0                           
  psel                         integral              1     'h0                           
  pwrite                       integral              1     'h0                           
  paddr                        integral              32    'h0                           
  pwdata                       integral              32    'h0                           
  apb_read_data_out            integral              32    'h0                           
  apb_read_data_valid          integral              1     'h0                           
  begin_time                   time                  64    1190000                       
  depth                        int                   32    'd2                           
  parent sequence (name)       string                4     jseq                          
  parent sequence (full name)  string                30    uvm_test_top.env.apj.seqr.jseq
  sequencer                    string                25    uvm_test_top.env.apj.seqr     
-----------------------------------------------------------------------------------------
4172704647 -------------4172704647
-------------------------------------------------------------
Name                   Type                  Size  Value     
-------------------------------------------------------------
trans                  apb_jtag_transaction  -     @4669     
  transfer             integral              1     'h1       
  read                 integral              1     'h1       
  write                integral              1     'h0       
  apb_paddr            integral              32    'hc0a6689d
  apb_write_data       integral              32    'h44c54f32
  prdata               integral              32    'hf8b66b87
  pready               integral              1     'h0       
  pslverr              integral              1     'h0       
  psel                 integral              1     'h1       
  pwrite               integral              1     'h0       
  paddr                integral              32    'hc0a6689d
  pwdata               integral              32    'h0       
  apb_read_data_out    integral              32    'hf8b66b87
  apb_read_data_valid  integral              1     'h0       
-------------------------------------------------------------
the value of slave error is 0
-----------------------------------------------------------------------------------------
Name                           Type                  Size  Value                         
-----------------------------------------------------------------------------------------
write_transaction              apb_jtag_transaction  -     @4754                         
  transfer                     integral              1     'h1                           
  read                         integral              1     'h0                           
  write                        integral              1     'h1                           
  apb_paddr                    integral              32    'h2883b48a                    
  apb_write_data               integral              32    'h20c4d682                    
  prdata                       integral              32    'h0                           
  pready                       integral              1     'h0                           
  pslverr                      integral              1     'h0                           
  psel                         integral              1     'h0                           
  pwrite                       integral              1     'h0                           
  paddr                        integral              32    'h0                           
  pwdata                       integral              32    'h0                           
  apb_read_data_out            integral              32    'h0                           
  apb_read_data_valid          integral              1     'h0                           
  begin_time                   time                  64    1250000                       
  depth                        int                   32    'd2                           
  parent sequence (name)       string                4     jseq                          
  parent sequence (full name)  string                30    uvm_test_top.env.apj.seqr.jseq
  sequencer                    string                25    uvm_test_top.env.apj.seqr     
-----------------------------------------------------------------------------------------
4172704647 -------------         0
-------------------------------------------------------------
Name                   Type                  Size  Value     
-------------------------------------------------------------
trans                  apb_jtag_transaction  -     @4747     
  transfer             integral              1     'h1       
  read                 integral              1     'h0       
  write                integral              1     'h1       
  apb_paddr            integral              32    'h2883b48a
  apb_write_data       integral              32    'h20c4d682
  prdata               integral              32    'h0       
  pready               integral              1     'h0       
  pslverr              integral              1     'h0       
  psel                 integral              1     'h1       
  pwrite               integral              1     'h0       
  paddr                integral              32    'h2883b48a
  pwdata               integral              32    'h20c4d682
  apb_read_data_out    integral              32    'h0       
  apb_read_data_valid  integral              1     'h0       
-------------------------------------------------------------
data written into slave at memory [2883b48a] = 20c4d682
the value of slave error is 0
-----------------------------------------------------------------------------------------
Name                           Type                  Size  Value                         
-----------------------------------------------------------------------------------------
write_transaction              apb_jtag_transaction  -     @4801                         
  transfer                     integral              1     'h1                           
  read                         integral              1     'h1                           
  write                        integral              1     'h0                           
  apb_paddr                    integral              32    'h5432551e                    
  apb_write_data               integral              32    'h2c12e01f                    
  prdata                       integral              32    'h0                           
  pready                       integral              1     'h0                           
  pslverr                      integral              1     'h0                           
  psel                         integral              1     'h0                           
  pwrite                       integral              1     'h0                           
  paddr                        integral              32    'h0                           
  pwdata                       integral              32    'h0                           
  apb_read_data_out            integral              32    'h0                           
  apb_read_data_valid          integral              1     'h0                           
  begin_time                   time                  64    1290000                       
  depth                        int                   32    'd2                           
  parent sequence (name)       string                4     jseq                          
  parent sequence (full name)  string                30    uvm_test_top.env.apj.seqr.jseq
  sequencer                    string                25    uvm_test_top.env.apj.seqr     
-----------------------------------------------------------------------------------------
4172704647 -------------4172704647
-------------------------------------------------------------
Name                   Type                  Size  Value     
-------------------------------------------------------------
trans                  apb_jtag_transaction  -     @4804     
  transfer             integral              1     'h1       
  read                 integral              1     'h1       
  write                integral              1     'h0       
  apb_paddr            integral              32    'h5432551e
  apb_write_data       integral              32    'h2c12e01f
  prdata               integral              32    'hf8b66b87
  pready               integral              1     'h0       
  pslverr              integral              1     'h0       
  psel                 integral              1     'h1       
  pwrite               integral              1     'h0       
  paddr                integral              32    'h5432551e
  pwdata               integral              32    'h0       
  apb_read_data_out    integral              32    'hf8b66b87
  apb_read_data_valid  integral              1     'h0       
-------------------------------------------------------------
the value of slave error is 0
-----------------------------------------------------------------------------------------
Name                           Type                  Size  Value                         
-----------------------------------------------------------------------------------------
write_transaction              apb_jtag_transaction  -     @4778                         
  transfer                     integral              1     'h1                           
  read                         integral              1     'h0                           
  write                        integral              1     'h1                           
  apb_paddr                    integral              32    'h562a1202                    
  apb_write_data               integral              32    'h4c9e8aa3                    
  prdata                       integral              32    'h0                           
  pready                       integral              1     'h0                           
  pslverr                      integral              1     'h0                           
  psel                         integral              1     'h0                           
  pwrite                       integral              1     'h0                           
  paddr                        integral              32    'h0                           
  pwdata                       integral              32    'h0                           
  apb_read_data_out            integral              32    'h0                           
  apb_read_data_valid          integral              1     'h0                           
  begin_time                   time                  64    1330000                       
  depth                        int                   32    'd2                           
  parent sequence (name)       string                4     jseq                          
  parent sequence (full name)  string                30    uvm_test_top.env.apj.seqr.jseq
  sequencer                    string                25    uvm_test_top.env.apj.seqr     
-----------------------------------------------------------------------------------------
2534372533 -------------         0
-------------------------------------------------------------
Name                   Type                  Size  Value     
-------------------------------------------------------------
trans                  apb_jtag_transaction  -     @4772     
  transfer             integral              1     'h1       
  read                 integral              1     'h0       
  write                integral              1     'h1       
  apb_paddr            integral              32    'h562a1202
  apb_write_data       integral              32    'h4c9e8aa3
  prdata               integral              32    'h0       
  pready               integral              1     'h0       
  pslverr              integral              1     'h0       
  psel                 integral              1     'h1       
  pwrite               integral              1     'h0       
  paddr                integral              32    'h562a1202
  pwdata               integral              32    'h4c9e8aa3
  apb_read_data_out    integral              32    'h0       
  apb_read_data_valid  integral              1     'h0       
-------------------------------------------------------------
2534372533 -------------         0
-------------------------------------------------------------
Name                   Type                  Size  Value     
-------------------------------------------------------------
trans                  apb_jtag_transaction  -     @4717     
  transfer             integral              1     'h1       
  read                 integral              1     'h0       
  write                integral              1     'h1       
  apb_paddr            integral              32    'h562a1202
  apb_write_data       integral              32    'h4c9e8aa3
  prdata               integral              32    'h0       
  pready               integral              1     'h0       
  pslverr              integral              1     'h0       
  psel                 integral              1     'h1       
  pwrite               integral              1     'h0       
  paddr                integral              32    'h562a1202
  pwdata               integral              32    'h4c9e8aa3
  apb_read_data_out    integral              32    'h0       
  apb_read_data_valid  integral              1     'h0       
-------------------------------------------------------------
data written into slave at memory [562a1202] = 4c9e8aa3
2534372533 -------------         0
-------------------------------------------------------------
Name                   Type                  Size  Value     
-------------------------------------------------------------
trans                  apb_jtag_transaction  -     @4789     
  transfer             integral              1     'h1       
  read                 integral              1     'h0       
  write                integral              1     'h1       
  apb_paddr            integral              32    'h562a1202
  apb_write_data       integral              32    'h4c9e8aa3
  prdata               integral              32    'h0       
  pready               integral              1     'h0       
  pslverr              integral              1     'h0       
  psel                 integral              1     'h1       
  pwrite               integral              1     'h0       
  paddr                integral              32    'h562a1202
  pwdata               integral              32    'h4c9e8aa3
  apb_read_data_out    integral              32    'h0       
  apb_read_data_valid  integral              1     'h0       
-------------------------------------------------------------
the value of slave error is 0
-----------------------------------------------------------------------------------------
Name                           Type                  Size  Value                         
-----------------------------------------------------------------------------------------
write_transaction              apb_jtag_transaction  -     @4806                         
  transfer                     integral              1     'h1                           
  read                         integral              1     'h1                           
  write                        integral              1     'h0                           
  apb_paddr                    integral              32    'h6a5a68f6                    
  apb_write_data               integral              32    'h13969313                    
  prdata                       integral              32    'h0                           
  pready                       integral              1     'h0                           
  pslverr                      integral              1     'h0                           
  psel                         integral              1     'h0                           
  pwrite                       integral              1     'h0                           
  paddr                        integral              32    'h0                           
  pwdata                       integral              32    'h0                           
  apb_read_data_out            integral              32    'h0                           
  apb_read_data_valid          integral              1     'h0                           
  begin_time                   time                  64    1430000                       
  depth                        int                   32    'd2                           
  parent sequence (name)       string                4     jseq                          
  parent sequence (full name)  string                30    uvm_test_top.env.apj.seqr.jseq
  sequencer                    string                25    uvm_test_top.env.apj.seqr     
-----------------------------------------------------------------------------------------
2050743839 -------------2050743839
-------------------------------------------------------------
Name                   Type                  Size  Value     
-------------------------------------------------------------
trans                  apb_jtag_transaction  -     @4706     
  transfer             integral              1     'h1       
  read                 integral              1     'h1       
  write                integral              1     'h0       
  apb_paddr            integral              32    'h6a5a68f6
  apb_write_data       integral              32    'h13969313
  prdata               integral              32    'h7a3bde1f
  pready               integral              1     'h0       
  pslverr              integral              1     'h0       
  psel                 integral              1     'h1       
  pwrite               integral              1     'h0       
  paddr                integral              32    'h6a5a68f6
  pwdata               integral              32    'h0       
  apb_read_data_out    integral              32    'h7a3bde1f
  apb_read_data_valid  integral              1     'h0       
-------------------------------------------------------------
the value of slave error is 0
-----------------------------------------------------------------------------------------
Name                           Type                  Size  Value                         
-----------------------------------------------------------------------------------------
write_transaction              apb_jtag_transaction  -     @4670                         
  transfer                     integral              1     'h1                           
  read                         integral              1     'h0                           
  write                        integral              1     'h1                           
  apb_paddr                    integral              32    'hf726e748                    
  apb_write_data               integral              32    'h9045f5b7                    
  prdata                       integral              32    'h0                           
  pready                       integral              1     'h0                           
  pslverr                      integral              1     'h0                           
  psel                         integral              1     'h0                           
  pwrite                       integral              1     'h0                           
  paddr                        integral              32    'h0                           
  pwdata                       integral              32    'h0                           
  apb_read_data_out            integral              32    'h0                           
  apb_read_data_valid          integral              1     'h0                           
  begin_time                   time                  64    1570000                       
  depth                        int                   32    'd2                           
  parent sequence (name)       string                4     jseq                          
  parent sequence (full name)  string                30    uvm_test_top.env.apj.seqr.jseq
  sequencer                    string                25    uvm_test_top.env.apj.seqr     
-----------------------------------------------------------------------------------------
2050743839 -------------         0
-------------------------------------------------------------
Name                   Type                  Size  Value     
-------------------------------------------------------------
trans                  apb_jtag_transaction  -     @4747     
  transfer             integral              1     'h1       
  read                 integral              1     'h0       
  write                integral              1     'h1       
  apb_paddr            integral              32    'hf726e748
  apb_write_data       integral              32    'h9045f5b7
  prdata               integral              32    'h0       
  pready               integral              1     'h0       
  pslverr              integral              1     'h0       
  psel                 integral              1     'h1       
  pwrite               integral              1     'h0       
  paddr                integral              32    'hf726e748
  pwdata               integral              32    'h9045f5b7
  apb_read_data_out    integral              32    'h0       
  apb_read_data_valid  integral              1     'h0       
-------------------------------------------------------------
2050743839 -------------         0
-------------------------------------------------------------
Name                   Type                  Size  Value     
-------------------------------------------------------------
trans                  apb_jtag_transaction  -     @4723     
  transfer             integral              1     'h1       
  read                 integral              1     'h0       
  write                integral              1     'h1       
  apb_paddr            integral              32    'hf726e748
  apb_write_data       integral              32    'h9045f5b7
  prdata               integral              32    'h0       
  pready               integral              1     'h0       
  pslverr              integral              1     'h0       
  psel                 integral              1     'h1       
  pwrite               integral              1     'h0       
  paddr                integral              32    'hf726e748
  pwdata               integral              32    'h9045f5b7
  apb_read_data_out    integral              32    'h0       
  apb_read_data_valid  integral              1     'h0       
-------------------------------------------------------------
data written into slave at memory [f726e748] = 9045f5b7
2050743839 -------------         0
-------------------------------------------------------------
Name                   Type                  Size  Value     
-------------------------------------------------------------
trans                  apb_jtag_transaction  -     @4637     
  transfer             integral              1     'h1       
  read                 integral              1     'h0       
  write                integral              1     'h1       
  apb_paddr            integral              32    'hf726e748
  apb_write_data       integral              32    'h9045f5b7
  prdata               integral              32    'h0       
  pready               integral              1     'h0       
  pslverr              integral              1     'h0       
  psel                 integral              1     'h1       
  pwrite               integral              1     'h0       
  paddr                integral              32    'hf726e748
  pwdata               integral              32    'h9045f5b7
  apb_read_data_out    integral              32    'h0       
  apb_read_data_valid  integral              1     'h0       
-------------------------------------------------------------
the value of slave error is 0
-----------------------------------------------------------------------------------------
Name                           Type                  Size  Value                         
-----------------------------------------------------------------------------------------
write_transaction              apb_jtag_transaction  -     @4783                         
  transfer                     integral              1     'h1                           
  read                         integral              1     'h0                           
  write                        integral              1     'h1                           
  apb_paddr                    integral              32    'h5fbaffcd                    
  apb_write_data               integral              32    'h6922a863                    
  prdata                       integral              32    'h0                           
  pready                       integral              1     'h0                           
  pslverr                      integral              1     'h0                           
  psel                         integral              1     'h0                           
  pwrite                       integral              1     'h0                           
  paddr                        integral              32    'h0                           
  pwdata                       integral              32    'h0                           
  apb_read_data_out            integral              32    'h0                           
  apb_read_data_valid          integral              1     'h0                           
  begin_time                   time                  64    1670000                       
  depth                        int                   32    'd2                           
  parent sequence (name)       string                4     jseq                          
  parent sequence (full name)  string                30    uvm_test_top.env.apj.seqr.jseq
  sequencer                    string                25    uvm_test_top.env.apj.seqr     
-----------------------------------------------------------------------------------------
data written into slave at memory [5fbaffcd] = 6922a863
2050743839 -------------         0
-------------------------------------------------------------
Name                   Type                  Size  Value     
-------------------------------------------------------------
trans                  apb_jtag_transaction  -     @4648     
  transfer             integral              1     'h1       
  read                 integral              1     'h0       
  write                integral              1     'h1       
  apb_paddr            integral              32    'h5fbaffcd
  apb_write_data       integral              32    'h6922a863
  prdata               integral              32    'h0       
  pready               integral              1     'h0       
  pslverr              integral              1     'h1       
  psel                 integral              1     'h1       
  pwrite               integral              1     'h0       
  paddr                integral              32    'h5fbaffcd
  pwdata               integral              32    'h6922a863
  apb_read_data_out    integral              32    'h0       
  apb_read_data_valid  integral              1     'h0       
-------------------------------------------------------------
the value of slave error is 1
-----------------------------------------------------------------------------------------
Name                           Type                  Size  Value                         
-----------------------------------------------------------------------------------------
write_transaction              apb_jtag_transaction  -     @4784                         
  transfer                     integral              1     'h1                           
  read                         integral              1     'h1                           
  write                        integral              1     'h0                           
  apb_paddr                    integral              32    'hba7d30ac                    
  apb_write_data               integral              32    'hc3a9be59                    
  prdata                       integral              32    'h0                           
  pready                       integral              1     'h0                           
  pslverr                      integral              1     'h0                           
  psel                         integral              1     'h0                           
  pwrite                       integral              1     'h0                           
  paddr                        integral              32    'h0                           
  pwdata                       integral              32    'h0                           
  apb_read_data_out            integral              32    'h0                           
  apb_read_data_valid          integral              1     'h0                           
  begin_time                   time                  64    1710000                       
  depth                        int                   32    'd2                           
  parent sequence (name)       string                4     jseq                          
  parent sequence (full name)  string                30    uvm_test_top.env.apj.seqr.jseq
  sequencer                    string                25    uvm_test_top.env.apj.seqr     
-----------------------------------------------------------------------------------------
4077094084 -------------4077094084
-------------------------------------------------------------
Name                   Type                  Size  Value     
-------------------------------------------------------------
trans                  apb_jtag_transaction  -     @4789     
  transfer             integral              1     'h1       
  read                 integral              1     'h1       
  write                integral              1     'h0       
  apb_paddr            integral              32    'hba7d30ac
  apb_write_data       integral              32    'hc3a9be59
  prdata               integral              32    'hf30384c4
  pready               integral              1     'h0       
  pslverr              integral              1     'h0       
  psel                 integral              1     'h1       
  pwrite               integral              1     'h0       
  paddr                integral              32    'hba7d30ac
  pwdata               integral              32    'h0       
  apb_read_data_out    integral              32    'hf30384c4
  apb_read_data_valid  integral              1     'h0       
-------------------------------------------------------------
the value of slave error is 1
-----------------------------------------------------------------------------------------
Name                           Type                  Size  Value                         
-----------------------------------------------------------------------------------------
write_transaction              apb_jtag_transaction  -     @4649                         
  transfer                     integral              1     'h1                           
  read                         integral              1     'h1                           
  write                        integral              1     'h0                           
  apb_paddr                    integral              32    'ha726a93f                    
  apb_write_data               integral              32    'ha53a2f82                    
  prdata                       integral              32    'h0                           
  pready                       integral              1     'h0                           
  pslverr                      integral              1     'h0                           
  psel                         integral              1     'h0                           
  pwrite                       integral              1     'h0                           
  paddr                        integral              32    'h0                           
  pwdata                       integral              32    'h0                           
  apb_read_data_out            integral              32    'h0                           
  apb_read_data_valid          integral              1     'h0                           
  begin_time                   time                  64    1810000                       
  depth                        int                   32    'd2                           
  parent sequence (name)       string                4     jseq                          
  parent sequence (full name)  string                30    uvm_test_top.env.apj.seqr.jseq
  sequencer                    string                25    uvm_test_top.env.apj.seqr     
-----------------------------------------------------------------------------------------
4077094084 -------------4077094084
-------------------------------------------------------------
Name                   Type                  Size  Value     
-------------------------------------------------------------
trans                  apb_jtag_transaction  -     @4728     
  transfer             integral              1     'h1       
  read                 integral              1     'h1       
  write                integral              1     'h0       
  apb_paddr            integral              32    'ha726a93f
  apb_write_data       integral              32    'ha53a2f82
  prdata               integral              32    'hf30384c4
  pready               integral              1     'h0       
  pslverr              integral              1     'h0       
  psel                 integral              1     'h1       
  pwrite               integral              1     'h0       
  paddr                integral              32    'ha726a93f
  pwdata               integral              32    'h0       
  apb_read_data_out    integral              32    'hf30384c4
