xrun(64): 22.09-s003: (c) Copyright 1995-2022 Cadence Design Systems, Inc.
TOOL:	xrun(64)	22.09-s003: Started on Dec 27, 2024 at 09:12:38 IST
xrun
	-f compile_file.f
		../APB_RTL/APB_Master.v
		../uvm_testbench/apb_top/apb_interface.sv
		../uvm_testbench/apb_top/apb_test_pkg.sv
		../uvm_testbench/apb_test/apb_top.sv
	-uvmhome CDNS-1.1d
	+UVM_TESTNAME=apb_write_test
	-seed 15618
	-debug
	-access +rwc
	-covdut apb_master
	-covworkdir cov_work
	-logfile logs/20241227_091238_apb_write_test_15618/apb_write_test_None_20241227_091238.log
	+UVM_VERBOSITY=UVM_NONE
	-coverage all
	-covoverwrite

   User defined plus("+") options:
	+UVM_VERBOSITY=UVM_NONE

Loading snapshot worklib.apb_top:sv .................... Done
SVSEED set from command line: 15618
xmsim: *W,DSEM2009: This SystemVerilog design is simulated as per IEEE 1800-2009 SystemVerilog simulation semantics. Use -disable_sem2009 option for turning off SV 2009 simulation semantics.
xcelium> source /tools/cadence_march2021/XCELIUM2209/tools/xcelium/files/xmsimrc
xcelium> source /tools/cadence_march2021/XCELIUM2209/tools/methodology/UVM/CDNS-1.1d/additions/sv/files/tcl/uvm_sim.tcl
xcelium> run
----------------------------------------------------------------
CDNS-UVM-1.1d (22.09-s003)
(C) 2007-2013 Mentor Graphics Corporation
(C) 2007-2013 Cadence Design Systems, Inc.
(C) 2006-2013 Synopsys, Inc.
(C) 2011-2013 Cypress Semiconductor Corp.
----------------------------------------------------------------

  ***********       IMPORTANT RELEASE NOTES         ************

  You are using a version of the UVM library that has been compiled
  with `UVM_NO_DEPRECATED undefined.
  See http://www.eda.org/svdb/view.php?id=3313 for more details.

  You are using a version of the UVM library that has been compiled
  with `UVM_OBJECT_MUST_HAVE_CONSTRUCTOR undefined.
  See http://www.eda.org/svdb/view.php?id=3770 for more details.

      (Specify +UVM_NO_RELNOTES to turn off this notice)

UVM_INFO @ 0: reporter [RNTST] Running test apb_write_test...
the value of slave error is 0
-----------------------------------------------------------------------------------------
Name                           Type                  Size  Value                         
-----------------------------------------------------------------------------------------
write_transaction              apb_jtag_transaction  -     @4627                         
  transfer                     integral              1     'h1                           
  read                         integral              1     'h1                           
  write                        integral              1     'h0                           
  apb_paddr                    integral              32    'h94136a2a                    
  apb_write_data               integral              32    'he88173c5                    
  prdata                       integral              32    'h0                           
  pready                       integral              1     'h0                           
  pslverr                      integral              1     'h0                           
  psel                         integral              1     'h0                           
  pwrite                       integral              1     'h0                           
  paddr                        integral              32    'h0                           
  pwdata                       integral              32    'h0                           
  apb_read_data_out            integral              32    'h0                           
  apb_read_data_valid          integral              1     'h0                           
  begin_time                   time                  64    30000                         
  depth                        int                   32    'd2                           
  parent sequence (name)       string                4     jseq                          
  parent sequence (full name)  string                30    uvm_test_top.env.apj.seqr.jseq
  sequencer                    string                25    uvm_test_top.env.apj.seqr     
-----------------------------------------------------------------------------------------
 541509859 ------------- 541509859
-------------------------------------------------------------
Name                   Type                  Size  Value     
-------------------------------------------------------------
trans                  apb_jtag_transaction  -     @4660     
  transfer             integral              1     'h0       
  read                 integral              1     'h1       
  write                integral              1     'h0       
  apb_paddr            integral              32    'h94136a2a
  apb_write_data       integral              32    'he88173c5
  prdata               integral              32    'h2046c8e3
  pready               integral              1     'h0       
  pslverr              integral              1     'h0       
  psel                 integral              1     'h1       
  pwrite               integral              1     'h0       
  paddr                integral              32    'h94136a2a
  pwdata               integral              32    'h0       
  apb_read_data_out    integral              32    'h2046c8e3
  apb_read_data_valid  integral              1     'h0       
-------------------------------------------------------------
the value of slave error is 1
-----------------------------------------------------------------------------------------
Name                           Type                  Size  Value                         
-----------------------------------------------------------------------------------------
write_transaction              apb_jtag_transaction  -     @4680                         
  transfer                     integral              1     'h1                           
  read                         integral              1     'h1                           
  write                        integral              1     'h0                           
  apb_paddr                    integral              32    'h8d2a85b4                    
  apb_write_data               integral              32    'h8bb67c75                    
  prdata                       integral              32    'h0                           
  pready                       integral              1     'h0                           
  pslverr                      integral              1     'h0                           
  psel                         integral              1     'h0                           
  pwrite                       integral              1     'h0                           
  paddr                        integral              32    'h0                           
  pwdata                       integral              32    'h0                           
  apb_read_data_out            integral              32    'h0                           
  apb_read_data_valid          integral              1     'h0                           
  begin_time                   time                  64    150000                        
  depth                        int                   32    'd2                           
  parent sequence (name)       string                4     jseq                          
  parent sequence (full name)  string                30    uvm_test_top.env.apj.seqr.jseq
  sequencer                    string                25    uvm_test_top.env.apj.seqr     
-----------------------------------------------------------------------------------------
 541509859 ------------- 541509859
-------------------------------------------------------------
Name                   Type                  Size  Value     
-------------------------------------------------------------
trans                  apb_jtag_transaction  -     @4719     
  transfer             integral              1     'h0       
  read                 integral              1     'h1       
  write                integral              1     'h0       
  apb_paddr            integral              32    'h8d2a85b4
  apb_write_data       integral              32    'h8bb67c75
  prdata               integral              32    'h2046c8e3
  pready               integral              1     'h0       
  pslverr              integral              1     'h0       
  psel                 integral              1     'h1       
  pwrite               integral              1     'h0       
  paddr                integral              32    'h8d2a85b4
  pwdata               integral              32    'h0       
  apb_read_data_out    integral              32    'h2046c8e3
  apb_read_data_valid  integral              1     'h0       
-------------------------------------------------------------
the value of slave error is 0
-----------------------------------------------------------------------------------------
Name                           Type                  Size  Value                         
-----------------------------------------------------------------------------------------
write_transaction              apb_jtag_transaction  -     @4712                         
  transfer                     integral              1     'h1                           
  read                         integral              1     'h1                           
  write                        integral              1     'h0                           
  apb_paddr                    integral              32    'hcce5a013                    
  apb_write_data               integral              32    'h527465f3                    
  prdata                       integral              32    'h0                           
  pready                       integral              1     'h0                           
  pslverr                      integral              1     'h0                           
  psel                         integral              1     'h0                           
  pwrite                       integral              1     'h0                           
  paddr                        integral              32    'h0                           
  pwdata                       integral              32    'h0                           
  apb_read_data_out            integral              32    'h0                           
  apb_read_data_valid          integral              1     'h0                           
  begin_time                   time                  64    190000                        
  depth                        int                   32    'd2                           
  parent sequence (name)       string                4     jseq                          
  parent sequence (full name)  string                30    uvm_test_top.env.apj.seqr.jseq
  sequencer                    string                25    uvm_test_top.env.apj.seqr     
-----------------------------------------------------------------------------------------
4008714662 -------------4008714662
-------------------------------------------------------------
Name                   Type                  Size  Value     
-------------------------------------------------------------
trans                  apb_jtag_transaction  -     @4775     
  transfer             integral              1     'h0       
  read                 integral              1     'h1       
  write                integral              1     'h0       
  apb_paddr            integral              32    'hcce5a013
  apb_write_data       integral              32    'h527465f3
  prdata               integral              32    'heef021a6
  pready               integral              1     'h0       
  pslverr              integral              1     'h0       
  psel                 integral              1     'h1       
  pwrite               integral              1     'h0       
  paddr                integral              32    'hcce5a013
  pwdata               integral              32    'h0       
  apb_read_data_out    integral              32    'heef021a6
  apb_read_data_valid  integral              1     'h0       
-------------------------------------------------------------
the value of slave error is 1
-----------------------------------------------------------------------------------------
Name                           Type                  Size  Value                         
-----------------------------------------------------------------------------------------
write_transaction              apb_jtag_transaction  -     @4761                         
  transfer                     integral              1     'h1                           
  read                         integral              1     'h1                           
  write                        integral              1     'h0                           
  apb_paddr                    integral              32    'h316c411                     
  apb_write_data               integral              32    'h42b1f717                    
  prdata                       integral              32    'h0                           
  pready                       integral              1     'h0                           
  pslverr                      integral              1     'h0                           
  psel                         integral              1     'h0                           
  pwrite                       integral              1     'h0                           
  paddr                        integral              32    'h0                           
  pwdata                       integral              32    'h0                           
  apb_read_data_out            integral              32    'h0                           
  apb_read_data_valid          integral              1     'h0                           
  begin_time                   time                  64    290000                        
  depth                        int                   32    'd2                           
  parent sequence (name)       string                4     jseq                          
  parent sequence (full name)  string                30    uvm_test_top.env.apj.seqr.jseq
  sequencer                    string                25    uvm_test_top.env.apj.seqr     
-----------------------------------------------------------------------------------------
4008714662 -------------4008714662
-------------------------------------------------------------
Name                   Type                  Size  Value     
-------------------------------------------------------------
trans                  apb_jtag_transaction  -     @4670     
  transfer             integral              1     'h0       
  read                 integral              1     'h1       
  write                integral              1     'h0       
  apb_paddr            integral              32    'h316c411 
  apb_write_data       integral              32    'h42b1f717
  prdata               integral              32    'heef021a6
  pready               integral              1     'h0       
  pslverr              integral              1     'h0       
  psel                 integral              1     'h1       
  pwrite               integral              1     'h0       
  paddr                integral              32    'h316c411 
  pwdata               integral              32    'h0       
  apb_read_data_out    integral              32    'heef021a6
  apb_read_data_valid  integral              1     'h0       
-------------------------------------------------------------
the value of slave error is 1
-----------------------------------------------------------------------------------------
Name                           Type                  Size  Value                         
-----------------------------------------------------------------------------------------
write_transaction              apb_jtag_transaction  -     @4753                         
  transfer                     integral              1     'h1                           
  read                         integral              1     'h1                           
  write                        integral              1     'h0                           
  apb_paddr                    integral              32    'h22b67e71                    
  apb_write_data               integral              32    'hbf05137c                    
  prdata                       integral              32    'h0                           
  pready                       integral              1     'h0                           
  pslverr                      integral              1     'h0                           
  psel                         integral              1     'h0                           
  pwrite                       integral              1     'h0                           
  paddr                        integral              32    'h0                           
  pwdata                       integral              32    'h0                           
  apb_read_data_out            integral              32    'h0                           
  apb_read_data_valid          integral              1     'h0                           
  begin_time                   time                  64    330000                        
  depth                        int                   32    'd2                           
  parent sequence (name)       string                4     jseq                          
  parent sequence (full name)  string                30    uvm_test_top.env.apj.seqr.jseq
  sequencer                    string                25    uvm_test_top.env.apj.seqr     
-----------------------------------------------------------------------------------------
1246326690 -------------1246326690
-------------------------------------------------------------
Name                   Type                  Size  Value     
-------------------------------------------------------------
trans                  apb_jtag_transaction  -     @4684     
  transfer             integral              1     'h0       
  read                 integral              1     'h1       
  write                integral              1     'h0       
  apb_paddr            integral              32    'h22b67e71
  apb_write_data       integral              32    'hbf05137c
  prdata               integral              32    'h4a496fa2
  pready               integral              1     'h0       
  pslverr              integral              1     'h0       
  psel                 integral              1     'h1       
  pwrite               integral              1     'h0       
  paddr                integral              32    'h22b67e71
  pwdata               integral              32    'h0       
  apb_read_data_out    integral              32    'h4a496fa2
  apb_read_data_valid  integral              1     'h0       
-------------------------------------------------------------
the value of slave error is 1
-----------------------------------------------------------------------------------------
Name                           Type                  Size  Value                         
-----------------------------------------------------------------------------------------
write_transaction              apb_jtag_transaction  -     @4720                         
  transfer                     integral              1     'h1                           
  read                         integral              1     'h0                           
  write                        integral              1     'h1                           
  apb_paddr                    integral              32    'h2727a37e                    
  apb_write_data               integral              32    'he0a6d4ed                    
  prdata                       integral              32    'h0                           
  pready                       integral              1     'h0                           
  pslverr                      integral              1     'h0                           
  psel                         integral              1     'h0                           
  pwrite                       integral              1     'h0                           
  paddr                        integral              32    'h0                           
  pwdata                       integral              32    'h0                           
  apb_read_data_out            integral              32    'h0                           
  apb_read_data_valid          integral              1     'h0                           
  begin_time                   time                  64    450000                        
  depth                        int                   32    'd2                           
  parent sequence (name)       string                4     jseq                          
  parent sequence (full name)  string                30    uvm_test_top.env.apj.seqr.jseq
  sequencer                    string                25    uvm_test_top.env.apj.seqr     
-----------------------------------------------------------------------------------------
1246326690 -------------         0
-------------------------------------------------------------
Name                   Type                  Size  Value     
-------------------------------------------------------------
trans                  apb_jtag_transaction  -     @4737     
  transfer             integral              1     'h0       
  read                 integral              1     'h0       
  write                integral              1     'h1       
  apb_paddr            integral              32    'h2727a37e
  apb_write_data       integral              32    'he0a6d4ed
  prdata               integral              32    'h0       
  pready               integral              1     'h0       
  pslverr              integral              1     'h0       
  psel                 integral              1     'h1       
  pwrite               integral              1     'h0       
  paddr                integral              32    'h2727a37e
  pwdata               integral              32    'he0a6d4ed
  apb_read_data_out    integral              32    'h0       
  apb_read_data_valid  integral              1     'h0       
-------------------------------------------------------------
1246326690 -------------         0
-------------------------------------------------------------
Name                   Type                  Size  Value     
-------------------------------------------------------------
trans                  apb_jtag_transaction  -     @4792     
  transfer             integral              1     'h0       
  read                 integral              1     'h0       
  write                integral              1     'h1       
  apb_paddr            integral              32    'h2727a37e
  apb_write_data       integral              32    'he0a6d4ed
  prdata               integral              32    'h0       
  pready               integral              1     'h0       
  pslverr              integral              1     'h0       
  psel                 integral              1     'h1       
  pwrite               integral              1     'h0       
  paddr                integral              32    'h2727a37e
  pwdata               integral              32    'he0a6d4ed
  apb_read_data_out    integral              32    'h0       
  apb_read_data_valid  integral              1     'h0       
-------------------------------------------------------------
1246326690 -------------         0
-------------------------------------------------------------
Name                   Type                  Size  Value     
-------------------------------------------------------------
trans                  apb_jtag_transaction  -     @4707     
  transfer             integral              1     'h0       
  read                 integral              1     'h0       
  write                integral              1     'h1       
  apb_paddr            integral              32    'h2727a37e
  apb_write_data       integral              32    'he0a6d4ed
  prdata               integral              32    'h0       
  pready               integral              1     'h0       
  pslverr              integral              1     'h0       
  psel                 integral              1     'h1       
  pwrite               integral              1     'h0       
  paddr                integral              32    'h2727a37e
  pwdata               integral              32    'he0a6d4ed
  apb_read_data_out    integral              32    'h0       
  apb_read_data_valid  integral              1     'h0       
-------------------------------------------------------------
data written into slave at memory [2727a37e] = e0a6d4ed
1246326690 -------------         0
-------------------------------------------------------------
Name                   Type                  Size  Value     
-------------------------------------------------------------
trans                  apb_jtag_transaction  -     @4731     
  transfer             integral              1     'h0       
  read                 integral              1     'h0       
  write                integral              1     'h1       
  apb_paddr            integral              32    'h2727a37e
  apb_write_data       integral              32    'he0a6d4ed
  prdata               integral              32    'h0       
  pready               integral              1     'h0       
  pslverr              integral              1     'h1       
  psel                 integral              1     'h1       
  pwrite               integral              1     'h0       
  paddr                integral              32    'h2727a37e
  pwdata               integral              32    'he0a6d4ed
  apb_read_data_out    integral              32    'h0       
  apb_read_data_valid  integral              1     'h0       
-------------------------------------------------------------
the value of slave error is 1
-----------------------------------------------------------------------------------------
Name                           Type                  Size  Value                         
-----------------------------------------------------------------------------------------
write_transaction              apb_jtag_transaction  -     @4781                         
  transfer                     integral              1     'h1                           
  read                         integral              1     'h0                           
  write                        integral              1     'h1                           
  apb_paddr                    integral              32    'h7015a750                    
  apb_write_data               integral              32    'h76ee1253                    
  prdata                       integral              32    'h0                           
  pready                       integral              1     'h0                           
  pslverr                      integral              1     'h0                           
  psel                         integral              1     'h0                           
  pwrite                       integral              1     'h0                           
  paddr                        integral              32    'h0                           
  pwdata                       integral              32    'h0                           
  apb_read_data_out            integral              32    'h0                           
  apb_read_data_valid          integral              1     'h0                           
  begin_time                   time                  64    590000                        
  depth                        int                   32    'd2                           
  parent sequence (name)       string                4     jseq                          
  parent sequence (full name)  string                30    uvm_test_top.env.apj.seqr.jseq
  sequencer                    string                25    uvm_test_top.env.apj.seqr     
-----------------------------------------------------------------------------------------
1246326690 -------------         0
-------------------------------------------------------------
Name                   Type                  Size  Value     
-------------------------------------------------------------
trans                  apb_jtag_transaction  -     @4708     
  transfer             integral              1     'h0       
  read                 integral              1     'h0       
  write                integral              1     'h1       
  apb_paddr            integral              32    'h7015a750
  apb_write_data       integral              32    'h76ee1253
  prdata               integral              32    'h0       
  pready               integral              1     'h0       
  pslverr              integral              1     'h0       
  psel                 integral              1     'h1       
  pwrite               integral              1     'h0       
  paddr                integral              32    'h7015a750
  pwdata               integral              32    'h76ee1253
  apb_read_data_out    integral              32    'h0       
  apb_read_data_valid  integral              1     'h0       
-------------------------------------------------------------
1246326690 -------------         0
-------------------------------------------------------------
Name                   Type                  Size  Value     
-------------------------------------------------------------
trans                  apb_jtag_transaction  -     @4777     
  transfer             integral              1     'h0       
  read                 integral              1     'h0       
  write                integral              1     'h1       
  apb_paddr            integral              32    'h7015a750
  apb_write_data       integral              32    'h76ee1253
  prdata               integral              32    'h0       
  pready               integral              1     'h0       
  pslverr              integral              1     'h0       
  psel                 integral              1     'h1       
  pwrite               integral              1     'h0       
  paddr                integral              32    'h7015a750
  pwdata               integral              32    'h76ee1253
  apb_read_data_out    integral              32    'h0       
  apb_read_data_valid  integral              1     'h0       
-------------------------------------------------------------
data written into slave at memory [7015a750] = 76ee1253
the value of slave error is 0
-----------------------------------------------------------------------------------------
Name                           Type                  Size  Value                         
-----------------------------------------------------------------------------------------
write_transaction              apb_jtag_transaction  -     @4649                         
  transfer                     integral              1     'h1                           
  read                         integral              1     'h1                           
  write                        integral              1     'h0                           
  apb_paddr                    integral              32    'h21ef2027                    
  apb_write_data               integral              32    'h96ba5b48                    
  prdata                       integral              32    'h0                           
  pready                       integral              1     'h0                           
  pslverr                      integral              1     'h0                           
  psel                         integral              1     'h0                           
  pwrite                       integral              1     'h0                           
  paddr                        integral              32    'h0                           
  pwdata                       integral              32    'h0                           
  apb_read_data_out            integral              32    'h0                           
  apb_read_data_valid          integral              1     'h0                           
  begin_time                   time                  64    690000                        
  depth                        int                   32    'd2                           
  parent sequence (name)       string                4     jseq                          
  parent sequence (full name)  string                30    uvm_test_top.env.apj.seqr.jseq
  sequencer                    string                25    uvm_test_top.env.apj.seqr     
-----------------------------------------------------------------------------------------
3532995976 -------------3532995976
-------------------------------------------------------------
Name                   Type                  Size  Value     
-------------------------------------------------------------
trans                  apb_jtag_transaction  -     @4747     
  transfer             integral              1     'h0       
  read                 integral              1     'h1       
  write                integral              1     'h0       
  apb_paddr            integral              32    'h21ef2027
  apb_write_data       integral              32    'h96ba5b48
  prdata               integral              32    'hd2953d88
  pready               integral              1     'h0       
  pslverr              integral              1     'h0       
  psel                 integral              1     'h1       
  pwrite               integral              1     'h0       
  paddr                integral              32    'h21ef2027
  pwdata               integral              32    'h0       
  apb_read_data_out    integral              32    'hd2953d88
  apb_read_data_valid  integral              1     'h0       
-------------------------------------------------------------
the value of slave error is 1
-----------------------------------------------------------------------------------------
Name                           Type                  Size  Value                         
-----------------------------------------------------------------------------------------
write_transaction              apb_jtag_transaction  -     @4808                         
  transfer                     integral              1     'h1                           
  read                         integral              1     'h0                           
  write                        integral              1     'h1                           
  apb_paddr                    integral              32    'h61abdf05                    
  apb_write_data               integral              32    'he6e9559f                    
  prdata                       integral              32    'h0                           
  pready                       integral              1     'h0                           
  pslverr                      integral              1     'h0                           
  psel                         integral              1     'h0                           
  pwrite                       integral              1     'h0                           
  paddr                        integral              32    'h0                           
  pwdata                       integral              32    'h0                           
  apb_read_data_out            integral              32    'h0                           
  apb_read_data_valid          integral              1     'h0                           
  begin_time                   time                  64    790000                        
  depth                        int                   32    'd2                           
  parent sequence (name)       string                4     jseq                          
  parent sequence (full name)  string                30    uvm_test_top.env.apj.seqr.jseq
  sequencer                    string                25    uvm_test_top.env.apj.seqr     
-----------------------------------------------------------------------------------------
3532995976 -------------         0
-------------------------------------------------------------
Name                   Type                  Size  Value     
-------------------------------------------------------------
trans                  apb_jtag_transaction  -     @4749     
  transfer             integral              1     'h0       
  read                 integral              1     'h0       
  write                integral              1     'h1       
  apb_paddr            integral              32    'h61abdf05
  apb_write_data       integral              32    'he6e9559f
  prdata               integral              32    'h0       
  pready               integral              1     'h0       
  pslverr              integral              1     'h0       
  psel                 integral              1     'h1       
  pwrite               integral              1     'h0       
  paddr                integral              32    'h61abdf05
  pwdata               integral              32    'he6e9559f
  apb_read_data_out    integral              32    'h0       
  apb_read_data_valid  integral              1     'h0       
-------------------------------------------------------------
data written into slave at memory [61abdf05] = e6e9559f
the value of slave error is 1
-----------------------------------------------------------------------------------------
Name                           Type                  Size  Value                         
-----------------------------------------------------------------------------------------
write_transaction              apb_jtag_transaction  -     @4642                         
  transfer                     integral              1     'h1                           
  read                         integral              1     'h1                           
  write                        integral              1     'h0                           
  apb_paddr                    integral              32    'hd02bfc01                    
  apb_write_data               integral              32    'ha6709768                    
  prdata                       integral              32    'h0                           
  pready                       integral              1     'h0                           
  pslverr                      integral              1     'h0                           
  psel                         integral              1     'h0                           
  pwrite                       integral              1     'h0                           
  paddr                        integral              32    'h0                           
  pwdata                       integral              32    'h0                           
  apb_read_data_out            integral              32    'h0                           
  apb_read_data_valid          integral              1     'h0                           
  begin_time                   time                  64    830000                        
  depth                        int                   32    'd2                           
  parent sequence (name)       string                4     jseq                          
  parent sequence (full name)  string                30    uvm_test_top.env.apj.seqr.jseq
  sequencer                    string                25    uvm_test_top.env.apj.seqr     
-----------------------------------------------------------------------------------------
3532995976 -------------3532995976
-------------------------------------------------------------
Name                   Type                  Size  Value     
-------------------------------------------------------------
trans                  apb_jtag_transaction  -     @4748     
  transfer             integral              1     'h0       
  read                 integral              1     'h1       
  write                integral              1     'h0       
  apb_paddr            integral              32    'hd02bfc01
  apb_write_data       integral              32    'ha6709768
  prdata               integral              32    'hd2953d88
  pready               integral              1     'h0       
  pslverr              integral              1     'h0       
  psel                 integral              1     'h1       
  pwrite               integral              1     'h0       
  paddr                integral              32    'hd02bfc01
  pwdata               integral              32    'h0       
  apb_read_data_out    integral              32    'hd2953d88
  apb_read_data_valid  integral              1     'h0       
-------------------------------------------------------------
the value of slave error is 1
-----------------------------------------------------------------------------------------
Name                           Type                  Size  Value                         
-----------------------------------------------------------------------------------------
write_transaction              apb_jtag_transaction  -     @4655                         
  transfer                     integral              1     'h1                           
  read                         integral              1     'h0                           
  write                        integral              1     'h1                           
  apb_paddr                    integral              32    'h5f717269                    
  apb_write_data               integral              32    'hd6b1aec5                    
  prdata                       integral              32    'h0                           
  pready                       integral              1     'h0                           
  pslverr                      integral              1     'h0                           
  psel                         integral              1     'h0                           
  pwrite                       integral              1     'h0                           
  paddr                        integral              32    'h0                           
  pwdata                       integral              32    'h0                           
  apb_read_data_out            integral              32    'h0                           
  apb_read_data_valid          integral              1     'h0                           
  begin_time                   time                  64    870000                        
  depth                        int                   32    'd2                           
  parent sequence (name)       string                4     jseq                          
  parent sequence (full name)  string                30    uvm_test_top.env.apj.seqr.jseq
  sequencer                    string                25    uvm_test_top.env.apj.seqr     
-----------------------------------------------------------------------------------------
 561979687 -------------         0
-------------------------------------------------------------
Name                   Type                  Size  Value     
-------------------------------------------------------------
trans                  apb_jtag_transaction  -     @4745     
  transfer             integral              1     'h0       
  read                 integral              1     'h0       
  write                integral              1     'h1       
  apb_paddr            integral              32    'h5f717269
  apb_write_data       integral              32    'hd6b1aec5
  prdata               integral              32    'h0       
  pready               integral              1     'h0       
  pslverr              integral              1     'h0       
  psel                 integral              1     'h1       
  pwrite               integral              1     'h0       
  paddr                integral              32    'h5f717269
  pwdata               integral              32    'hd6b1aec5
  apb_read_data_out    integral              32    'h0       
  apb_read_data_valid  integral              1     'h0       
-------------------------------------------------------------
data written into slave at memory [5f717269] = d6b1aec5
the value of slave error is 1
-----------------------------------------------------------------------------------------
Name                           Type                  Size  Value                         
-----------------------------------------------------------------------------------------
write_transaction              apb_jtag_transaction  -     @4803                         
  transfer                     integral              1     'h1                           
  read                         integral              1     'h0                           
  write                        integral              1     'h1                           
  apb_paddr                    integral              32    'hbeddbeb0                    
  apb_write_data               integral              32    'hfc287c75                    
  prdata                       integral              32    'h0                           
  pready                       integral              1     'h0                           
  pslverr                      integral              1     'h0                           
  psel                         integral              1     'h0                           
  pwrite                       integral              1     'h0                           
  paddr                        integral              32    'h0                           
  pwdata                       integral              32    'h0                           
  apb_read_data_out            integral              32    'h0                           
  apb_read_data_valid          integral              1     'h0                           
  begin_time                   time                  64    910000                        
  depth                        int                   32    'd2                           
  parent sequence (name)       string                4     jseq                          
  parent sequence (full name)  string                30    uvm_test_top.env.apj.seqr.jseq
  sequencer                    string                25    uvm_test_top.env.apj.seqr     
-----------------------------------------------------------------------------------------
 561979687 -------------         0
-------------------------------------------------------------
Name                   Type                  Size  Value     
-------------------------------------------------------------
trans                  apb_jtag_transaction  -     @4799     
  transfer             integral              1     'h0       
  read                 integral              1     'h0       
  write                integral              1     'h1       
  apb_paddr            integral              32    'hbeddbeb0
  apb_write_data       integral              32    'hfc287c75
  prdata               integral              32    'h0       
  pready               integral              1     'h0       
  pslverr              integral              1     'h0       
  psel                 integral              1     'h1       
  pwrite               integral              1     'h0       
  paddr                integral              32    'hbeddbeb0
  pwdata               integral              32    'hfc287c75
  apb_read_data_out    integral              32    'h0       
  apb_read_data_valid  integral              1     'h0       
-------------------------------------------------------------
data written into slave at memory [beddbeb0] = fc287c75
 561979687 -------------         0
-------------------------------------------------------------
Name                   Type                  Size  Value     
-------------------------------------------------------------
trans                  apb_jtag_transaction  -     @4737     
  transfer             integral              1     'h0       
  read                 integral              1     'h0       
  write                integral              1     'h1       
  apb_paddr            integral              32    'hbeddbeb0
  apb_write_data       integral              32    'hfc287c75
  prdata               integral              32    'h0       
  pready               integral              1     'h0       
  pslverr              integral              1     'h0       
  psel                 integral              1     'h1       
  pwrite               integral              1     'h0       
  paddr                integral              32    'hbeddbeb0
  pwdata               integral              32    'hfc287c75
  apb_read_data_out    integral              32    'h0       
  apb_read_data_valid  integral              1     'h0       
-------------------------------------------------------------
the value of slave error is 0
-----------------------------------------------------------------------------------------
Name                           Type                  Size  Value                         
-----------------------------------------------------------------------------------------
write_transaction              apb_jtag_transaction  -     @4669                         
  transfer                     integral              1     'h1                           
  read                         integral              1     'h0                           
  write                        integral              1     'h1                           
  apb_paddr                    integral              32    'h742e01c0                    
  apb_write_data               integral              32    'hca1e2f72                    
  prdata                       integral              32    'h0                           
  pready                       integral              1     'h0                           
  pslverr                      integral              1     'h0                           
  psel                         integral              1     'h0                           
  pwrite                       integral              1     'h0                           
  paddr                        integral              32    'h0                           
  pwdata                       integral              32    'h0                           
  apb_read_data_out            integral              32    'h0                           
  apb_read_data_valid          integral              1     'h0                           
  begin_time                   time                  64    990000                        
  depth                        int                   32    'd2                           
  parent sequence (name)       string                4     jseq                          
  parent sequence (full name)  string                30    uvm_test_top.env.apj.seqr.jseq
  sequencer                    string                25    uvm_test_top.env.apj.seqr     
-----------------------------------------------------------------------------------------
 561979687 -------------         0
-------------------------------------------------------------
Name                   Type                  Size  Value     
-------------------------------------------------------------
trans                  apb_jtag_transaction  -     @4751     
  transfer             integral              1     'h0       
  read                 integral              1     'h0       
  write                integral              1     'h1       
  apb_paddr            integral              32    'h742e01c0
  apb_write_data       integral              32    'hca1e2f72
  prdata               integral              32    'h0       
  pready               integral              1     'h0       
  pslverr              integral              1     'h0       
  psel                 integral              1     'h1       
  pwrite               integral              1     'h0       
  paddr                integral              32    'h742e01c0
  pwdata               integral              32    'hca1e2f72
  apb_read_data_out    integral              32    'h0       
  apb_read_data_valid  integral              1     'h0       
-------------------------------------------------------------
data written into slave at memory [742e01c0] = ca1e2f72
 561979687 -------------         0
-------------------------------------------------------------
Name                   Type                  Size  Value     
-------------------------------------------------------------
trans                  apb_jtag_transaction  -     @4784     
  transfer             integral              1     'h0       
  read                 integral              1     'h0       
  write                integral              1     'h1       
  apb_paddr            integral              32    'h742e01c0
  apb_write_data       integral              32    'hca1e2f72
  prdata               integral              32    'h0       
  pready               integral              1     'h0       
  pslverr              integral              1     'h0       
  psel                 integral              1     'h1       
  pwrite               integral              1     'h0       
  paddr                integral              32    'h742e01c0
  pwdata               integral              32    'hca1e2f72
  apb_read_data_out    integral              32    'h0       
  apb_read_data_valid  integral              1     'h0       
-------------------------------------------------------------
the value of slave error is 0
-----------------------------------------------------------------------------------------
Name                           Type                  Size  Value                         
-----------------------------------------------------------------------------------------
write_transaction              apb_jtag_transaction  -     @4728                         
  transfer                     integral              1     'h1                           
  read                         integral              1     'h1                           
  write                        integral              1     'h0                           
  apb_paddr                    integral              32    'h5d041faf                    
  apb_write_data               integral              32    'h6f5109df                    
  prdata                       integral              32    'h0                           
  pready                       integral              1     'h0                           
  pslverr                      integral              1     'h0                           
  psel                         integral              1     'h0                           
  pwrite                       integral              1     'h0                           
  paddr                        integral              32    'h0                           
  pwdata                       integral              32    'h0                           
  apb_read_data_out            integral              32    'h0                           
  apb_read_data_valid          integral              1     'h0                           
  begin_time                   time                  64    1050000                       
  depth                        int                   32    'd2                           
  parent sequence (name)       string                4     jseq                          
  parent sequence (full name)  string                30    uvm_test_top.env.apj.seqr.jseq
  sequencer                    string                25    uvm_test_top.env.apj.seqr     
-----------------------------------------------------------------------------------------
1337722640 -------------1337722640
-------------------------------------------------------------
Name                   Type                  Size  Value     
-------------------------------------------------------------
trans                  apb_jtag_transaction  -     @4773     
  transfer             integral              1     'h0       
  read                 integral              1     'h1       
  write                integral              1     'h0       
  apb_paddr            integral              32    'h5d041faf
  apb_write_data       integral              32    'h6f5109df
  prdata               integral              32    'h4fbc0710
  pready               integral              1     'h0       
  pslverr              integral              1     'h0       
  psel                 integral              1     'h1       
  pwrite               integral              1     'h0       
  paddr                integral              32    'h5d041faf
  pwdata               integral              32    'h0       
  apb_read_data_out    integral              32    'h4fbc0710
  apb_read_data_valid  integral              1     'h0       
-------------------------------------------------------------
the value of slave error is 0
-----------------------------------------------------------------------------------------
Name                           Type                  Size  Value                         
-----------------------------------------------------------------------------------------
write_transaction              apb_jtag_transaction  -     @4719                         
  transfer                     integral              1     'h1                           
  read                         integral              1     'h1                           
  write                        integral              1     'h0                           
  apb_paddr                    integral              32    'he1bdb334                    
  apb_write_data               integral              32    'hfd50a35c                    
  prdata                       integral              32    'h0                           
  pready                       integral              1     'h0                           
  pslverr                      integral              1     'h0                           
  psel                         integral              1     'h0                           
  pwrite                       integral              1     'h0                           
  paddr                        integral              32    'h0                           
  pwdata                       integral              32    'h0                           
  apb_read_data_out            integral              32    'h0                           
  apb_read_data_valid          integral              1     'h0                           
  begin_time                   time                  64    1090000                       
  depth                        int                   32    'd2                           
  parent sequence (name)       string                4     jseq                          
  parent sequence (full name)  string                30    uvm_test_top.env.apj.seqr.jseq
  sequencer                    string                25    uvm_test_top.env.apj.seqr     
-----------------------------------------------------------------------------------------
2117148972 -------------2117148972
-------------------------------------------------------------
Name                   Type                  Size  Value     
-------------------------------------------------------------
trans                  apb_jtag_transaction  -     @4643     
  transfer             integral              1     'h0       
  read                 integral              1     'h1       
  write                integral              1     'h0       
  apb_paddr            integral              32    'he1bdb334
  apb_write_data       integral              32    'hfd50a35c
  prdata               integral              32    'h7e31212c
  pready               integral              1     'h0       
  pslverr              integral              1     'h0       
  psel                 integral              1     'h1       
  pwrite               integral              1     'h0       
  paddr                integral              32    'he1bdb334
  pwdata               integral              32    'h0       
  apb_read_data_out    integral              32    'h7e31212c
  apb_read_data_valid  integral              1     'h0       
-------------------------------------------------------------
the value of slave error is 0
-----------------------------------------------------------------------------------------
Name                           Type                  Size  Value                         
-----------------------------------------------------------------------------------------
write_transaction              apb_jtag_transaction  -     @4648                         
  transfer                     integral              1     'h1                           
  read                         integral              1     'h1                           
  write                        integral              1     'h0                           
  apb_paddr                    integral              32    'h75c7be46                    
  apb_write_data               integral              32    'h33e76f3a                    
  prdata                       integral              32    'h0                           
  pready                       integral              1     'h0                           
  pslverr                      integral              1     'h0                           
  psel                         integral              1     'h0                           
  pwrite                       integral              1     'h0                           
  paddr                        integral              32    'h0                           
  pwdata                       integral              32    'h0                           
  apb_read_data_out            integral              32    'h0                           
  apb_read_data_valid          integral              1     'h0                           
  begin_time                   time                  64    1130000                       
  depth                        int                   32    'd2                           
  parent sequence (name)       string                4     jseq                          
  parent sequence (full name)  string                30    uvm_test_top.env.apj.seqr.jseq
  sequencer                    string                25    uvm_test_top.env.apj.seqr     
-----------------------------------------------------------------------------------------
1289491586 -------------1289491586
-------------------------------------------------------------
Name                   Type                  Size  Value     
-------------------------------------------------------------
trans                  apb_jtag_transaction  -     @4752     
  transfer             integral              1     'h0       
  read                 integral              1     'h1       
  write                integral              1     'h0       
  apb_paddr            integral              32    'h75c7be46
  apb_write_data       integral              32    'h33e76f3a
  prdata               integral              32    'h4cdc1482
  pready               integral              1     'h0       
  pslverr              integral              1     'h0       
  psel                 integral              1     'h1       
  pwrite               integral              1     'h0       
  paddr                integral              32    'h75c7be46
  pwdata               integral              32    'h0       
  apb_read_data_out    integral              32    'h4cdc1482
  apb_read_data_valid  integral              1     'h0       
-------------------------------------------------------------
the value of slave error is 0
-----------------------------------------------------------------------------------------
Name                           Type                  Size  Value                         
-----------------------------------------------------------------------------------------
write_transaction              apb_jtag_transaction  -     @4703                         
  transfer                     integral              1     'h1                           
  read                         integral              1     'h0                           
  write                        integral              1     'h1                           
  apb_paddr                    integral              32    'hacb558a                     
  apb_write_data               integral              32    'hcd43b976                    
  prdata                       integral              32    'h0                           
  pready                       integral              1     'h0                           
  pslverr                      integral              1     'h0                           
  psel                         integral              1     'h0                           
  pwrite                       integral              1     'h0                           
  paddr                        integral              32    'h0                           
  pwdata                       integral              32    'h0                           
  apb_read_data_out            integral              32    'h0                           
  apb_read_data_valid          integral              1     'h0                           
  begin_time                   time                  64    1190000                       
  depth                        int                   32    'd2                           
  parent sequence (name)       string                4     jseq                          
  parent sequence (full name)  string                30    uvm_test_top.env.apj.seqr.jseq
  sequencer                    string                25    uvm_test_top.env.apj.seqr     
-----------------------------------------------------------------------------------------
1289491586 -------------         0
-------------------------------------------------------------
Name                   Type                  Size  Value     
-------------------------------------------------------------
trans                  apb_jtag_transaction  -     @4770     
  transfer             integral              1     'h0       
  read                 integral              1     'h0       
  write                integral              1     'h1       
  apb_paddr            integral              32    'hacb558a 
  apb_write_data       integral              32    'hcd43b976
  prdata               integral              32    'h0       
  pready               integral              1     'h0       
  pslverr              integral              1     'h0       
  psel                 integral              1     'h1       
  pwrite               integral              1     'h0       
  paddr                integral              32    'hacb558a 
  pwdata               integral              32    'hcd43b976
  apb_read_data_out    integral              32    'h0       
  apb_read_data_valid  integral              1     'h0       
-------------------------------------------------------------
data written into slave at memory [0acb558a] = cd43b976
the value of slave error is 1
-----------------------------------------------------------------------------------------
Name                           Type                  Size  Value                         
-----------------------------------------------------------------------------------------
write_transaction              apb_jtag_transaction  -     @4791                         
  transfer                     integral              1     'h1                           
  read                         integral              1     'h1                           
  write                        integral              1     'h0                           
  apb_paddr                    integral              32    'h3937963f                    
  apb_write_data               integral              32    'h5f4d0c63                    
  prdata                       integral              32    'h0                           
  pready                       integral              1     'h0                           
  pslverr                      integral              1     'h0                           
  psel                         integral              1     'h0                           
  pwrite                       integral              1     'h0                           
  paddr                        integral              32    'h0                           
  pwdata                       integral              32    'h0                           
  apb_read_data_out            integral              32    'h0                           
  apb_read_data_valid          integral              1     'h0                           
  begin_time                   time                  64    1230000                       
  depth                        int                   32    'd2                           
  parent sequence (name)       string                4     jseq                          
  parent sequence (full name)  string                30    uvm_test_top.env.apj.seqr.jseq
  sequencer                    string                25    uvm_test_top.env.apj.seqr     
-----------------------------------------------------------------------------------------
1289491586 -------------1289491586
-------------------------------------------------------------
Name                   Type                  Size  Value     
-------------------------------------------------------------
trans                  apb_jtag_transaction  -     @4756     
  transfer             integral              1     'h0       
  read                 integral              1     'h1       
  write                integral              1     'h0       
  apb_paddr            integral              32    'h3937963f
  apb_write_data       integral              32    'h5f4d0c63
  prdata               integral              32    'h4cdc1482
  pready               integral              1     'h0       
  pslverr              integral              1     'h0       
  psel                 integral              1     'h1       
  pwrite               integral              1     'h0       
  paddr                integral              32    'h3937963f
  pwdata               integral              32    'h0       
  apb_read_data_out    integral              32    'h4cdc1482
  apb_read_data_valid  integral              1     'h0       
-------------------------------------------------------------
the value of slave error is 1
-----------------------------------------------------------------------------------------
Name                           Type                  Size  Value                         
-----------------------------------------------------------------------------------------
write_transaction              apb_jtag_transaction  -     @4705                         
  transfer                     integral              1     'h1                           
  read                         integral              1     'h1                           
  write                        integral              1     'h0                           
  apb_paddr                    integral              32    'h81e59bad                    
  apb_write_data               integral              32    'h5cdb14e0                    
  prdata                       integral              32    'h0                           
  pready                       integral              1     'h0                           
  pslverr                      integral              1     'h0                           
  psel                         integral              1     'h0                           
  pwrite                       integral              1     'h0                           
  paddr                        integral              32    'h0                           
  pwdata                       integral              32    'h0                           
  apb_read_data_out            integral              32    'h0                           
  apb_read_data_valid          integral              1     'h0                           
  begin_time                   time                  64    1270000                       
  depth                        int                   32    'd2                           
  parent sequence (name)       string                4     jseq                          
  parent sequence (full name)  string                30    uvm_test_top.env.apj.seqr.jseq
  sequencer                    string                25    uvm_test_top.env.apj.seqr     
-----------------------------------------------------------------------------------------
 698692692 ------------- 698692692
-------------------------------------------------------------
Name                   Type                  Size  Value     
-------------------------------------------------------------
trans                  apb_jtag_transaction  -     @4712     
  transfer             integral              1     'h0       
  read                 integral              1     'h1       
  write                integral              1     'h0       
  apb_paddr            integral              32    'h81e59bad
  apb_write_data       integral              32    'h5cdb14e0
  prdata               integral              32    'h29a53454
  pready               integral              1     'h0       
  pslverr              integral              1     'h0       
  psel                 integral              1     'h1       
  pwrite               integral              1     'h0       
  paddr                integral              32    'h81e59bad
  pwdata               integral              32    'h0       
  apb_read_data_out    integral              32    'h29a53454
  apb_read_data_valid  integral              1     'h0       
-------------------------------------------------------------
the value of slave error is 0
-----------------------------------------------------------------------------------------
Name                           Type                  Size  Value                         
-----------------------------------------------------------------------------------------
write_transaction              apb_jtag_transaction  -     @4772                         
  transfer                     integral              1     'h1                           
  read                         integral              1     'h0                           
  write                        integral              1     'h1                           
  apb_paddr                    integral              32    'h7ae35186                    
  apb_write_data               integral              32    'h7a7ee286                    
  prdata                       integral              32    'h0                           
  pready                       integral              1     'h0                           
  pslverr                      integral              1     'h0                           
  psel                         integral              1     'h0                           
  pwrite                       integral              1     'h0                           
  paddr                        integral              32    'h0                           
  pwdata                       integral              32    'h0                           
  apb_read_data_out            integral              32    'h0                           
  apb_read_data_valid          integral              1     'h0                           
  begin_time                   time                  64    1310000                       
  depth                        int                   32    'd2                           
  parent sequence (name)       string                4     jseq                          
  parent sequence (full name)  string                30    uvm_test_top.env.apj.seqr.jseq
  sequencer                    string                25    uvm_test_top.env.apj.seqr     
-----------------------------------------------------------------------------------------
1585087522 -------------         0
-------------------------------------------------------------
Name                   Type                  Size  Value     
-------------------------------------------------------------
trans                  apb_jtag_transaction  -     @4644     
  transfer             integral              1     'h0       
  read                 integral              1     'h0       
  write                integral              1     'h1       
  apb_paddr            integral              32    'h7ae35186
  apb_write_data       integral              32    'h7a7ee286
  prdata               integral              32    'h0       
  pready               integral              1     'h0       
  pslverr              integral              1     'h0       
  psel                 integral              1     'h1       
  pwrite               integral              1     'h0       
  paddr                integral              32    'h7ae35186
  pwdata               integral              32    'h7a7ee286
  apb_read_data_out    integral              32    'h0       
  apb_read_data_valid  integral              1     'h0       
-------------------------------------------------------------
data written into slave at memory [7ae35186] = 7a7ee286
the value of slave error is 0
-----------------------------------------------------------------------------------------
Name                           Type                  Size  Value                         
-----------------------------------------------------------------------------------------
write_transaction              apb_jtag_transaction  -     @4807                         
  transfer                     integral              1     'h1                           
  read                         integral              1     'h1                           
  write                        integral              1     'h0                           
  apb_paddr                    integral              32    'h3412a74                     
  apb_write_data               integral              32    'h9250c593                    
  prdata                       integral              32    'h0                           
  pready                       integral              1     'h0                           
  pslverr                      integral              1     'h0                           
  psel                         integral              1     'h0                           
  pwrite                       integral              1     'h0                           
  paddr                        integral              32    'h0                           
  pwdata                       integral              32    'h0                           
  apb_read_data_out            integral              32    'h0                           
  apb_read_data_valid          integral              1     'h0                           
  begin_time                   time                  64    1350000                       
  depth                        int                   32    'd2                           
  parent sequence (name)       string                4     jseq                          
  parent sequence (full name)  string                30    uvm_test_top.env.apj.seqr.jseq
  sequencer                    string                25    uvm_test_top.env.apj.seqr     
-----------------------------------------------------------------------------------------
2076738749 -------------2076738749
-------------------------------------------------------------
Name                   Type                  Size  Value     
-------------------------------------------------------------
trans                  apb_jtag_transaction  -     @4666     
  transfer             integral              1     'h0       
  read                 integral              1     'h1       
  write                integral              1     'h0       
  apb_paddr            integral              32    'h3412a74 
  apb_write_data       integral              32    'h9250c593
  prdata               integral              32    'h7bc884bd
  pready               integral              1     'h0       
  pslverr              integral              1     'h0       
  psel                 integral              1     'h1       
  pwrite               integral              1     'h0       
  paddr                integral              32    'h3412a74 
  pwdata               integral              32    'h0       
  apb_read_data_out    integral              32    'h7bc884bd
  apb_read_data_valid  integral              1     'h0       
-------------------------------------------------------------
the value of slave error is 1
-----------------------------------------------------------------------------------------
Name                           Type                  Size  Value                         
-----------------------------------------------------------------------------------------
write_transaction              apb_jtag_transaction  -     @4808                         
  transfer                     integral              1     'h1                           
  read                         integral              1     'h1                           
  write                        integral              1     'h0                           
  apb_paddr                    integral              32    'hd2e1f547                    
  apb_write_data               integral              32    'h5ddd154e                    
  prdata                       integral              32    'h0                           
  pready                       integral              1     'h0                           
  pslverr                      integral              1     'h0                           
  psel                         integral              1     'h0                           
  pwrite                       integral              1     'h0                           
  paddr                        integral              32    'h0                           
  pwdata                       integral              32    'h0                           
  apb_read_data_out            integral              32    'h0                           
  apb_read_data_valid          integral              1     'h0                           
  begin_time                   time                  64    1470000                       
  depth                        int                   32    'd2                           
  parent sequence (name)       string                4     jseq                          
  parent sequence (full name)  string                30    uvm_test_top.env.apj.seqr.jseq
  sequencer                    string                25    uvm_test_top.env.apj.seqr     
-----------------------------------------------------------------------------------------
2076738749 -------------2076738749
-------------------------------------------------------------
Name                   Type                  Size  Value     
-------------------------------------------------------------
trans                  apb_jtag_transaction  -     @4761     
  transfer             integral              1     'h0       
  read                 integral              1     'h1       
  write                integral              1     'h0       
  apb_paddr            integral              32    'hd2e1f547
  apb_write_data       integral              32    'h5ddd154e
  prdata               integral              32    'h7bc884bd
  pready               integral              1     'h0       
  pslverr              integral              1     'h0       
  psel                 integral              1     'h1       
  pwrite               integral              1     'h0       
  paddr                integral              32    'hd2e1f547
  pwdata               integral              32    'h0       
  apb_read_data_out    integral              32    'h7bc884bd
  apb_read_data_valid  integral              1     'h0       
-------------------------------------------------------------
the value of slave error is 0
-----------------------------------------------------------------------------------------
Name                           Type                  Size  Value                         
-----------------------------------------------------------------------------------------
write_transaction              apb_jtag_transaction  -     @4717                         
  transfer                     integral              1     'h1                           
  read                         integral              1     'h0                           
  write                        integral              1     'h1                           
  apb_paddr                    integral              32    'h914dd65a                    
  apb_write_data               integral              32    'h585fefa0                    
  prdata                       integral              32    'h0                           
  pready                       integral              1     'h0                           
  pslverr                      integral              1     'h0                           
  psel                         integral              1     'h0                           
  pwrite                       integral              1     'h0                           
  paddr                        integral              32    'h0                           
  pwdata                       integral              32    'h0                           
  apb_read_data_out            integral              32    'h0                           
  apb_read_data_valid          integral              1     'h0                           
  begin_time                   time                  64    1510000                       
  depth                        int                   32    'd2                           
  parent sequence (name)       string                4     jseq                          
  parent sequence (full name)  string                30    uvm_test_top.env.apj.seqr.jseq
  sequencer                    string                25    uvm_test_top.env.apj.seqr     
-----------------------------------------------------------------------------------------
1479100766 -------------         0
-------------------------------------------------------------
Name                   Type                  Size  Value     
-------------------------------------------------------------
trans                  apb_jtag_transaction  -     @4763     
  transfer             integral              1     'h0       
  read                 integral              1     'h0       
  write                integral              1     'h1       
  apb_paddr            integral              32    'h914dd65a
  apb_write_data       integral              32    'h585fefa0
  prdata               integral              32    'h0       
  pready               integral              1     'h0       
  pslverr              integral              1     'h0       
  psel                 integral              1     'h1       
  pwrite               integral              1     'h0       
  paddr                integral              32    'h914dd65a
  pwdata               integral              32    'h585fefa0
  apb_read_data_out    integral              32    'h0       
  apb_read_data_valid  integral              1     'h0       
-------------------------------------------------------------
data written into slave at memory [914dd65a] = 585fefa0
the value of slave error is 1
-----------------------------------------------------------------------------------------
Name                           Type                  Size  Value                         
-----------------------------------------------------------------------------------------
write_transaction              apb_jtag_transaction  -     @4749                         
  transfer                     integral              1     'h1                           
  read                         integral              1     'h1                           
  write                        integral              1     'h0                           
  apb_paddr                    integral              32    'h4ef00666                    
  apb_write_data               integral              32    'h91de8043                    
  prdata                       integral              32    'h0                           
  pready                       integral              1     'h0                           
  pslverr                      integral              1     'h0                           
  psel                         integral              1     'h0                           
  pwrite                       integral              1     'h0                           
  paddr                        integral              32    'h0                           
  pwdata                       integral              32    'h0                           
  apb_read_data_out            integral              32    'h0                           
  apb_read_data_valid          integral              1     'h0                           
  begin_time                   time                  64    1550000                       
  depth                        int                   32    'd2                           
  parent sequence (name)       string                4     jseq                          
  parent sequence (full name)  string                30    uvm_test_top.env.apj.seqr.jseq
  sequencer                    string                25    uvm_test_top.env.apj.seqr     
-----------------------------------------------------------------------------------------
1479100766 -------------1479100766
-------------------------------------------------------------
Name                   Type                  Size  Value     
-------------------------------------------------------------
trans                  apb_jtag_transaction  -     @4660     
  transfer             integral              1     'h0       
  read                 integral              1     'h1       
  write                integral              1     'h0       
  apb_paddr            integral              32    'h4ef00666
  apb_write_data       integral              32    'h91de8043
  prdata               integral              32    'h5829495e
  pready               integral              1     'h0       
  pslverr              integral              1     'h0       
  psel                 integral              1     'h1       
  pwrite               integral              1     'h0       
  paddr                integral              32    'h4ef00666
  pwdata               integral              32    'h0       
  apb_read_data_out    integral              32    'h5829495e
  apb_read_data_valid  integral              1     'h0       
-------------------------------------------------------------
the value of slave error is 1
-----------------------------------------------------------------------------------------
Name                           Type                  Size  Value                         
-----------------------------------------------------------------------------------------
write_transaction              apb_jtag_transaction  -     @4783                         
  transfer                     integral              1     'h1                           
  read                         integral              1     'h1                           
  write                        integral              1     'h0                           
  apb_paddr                    integral              32    'h834128f8                    
  apb_write_data               integral              32    'hcae5994d                    
  prdata                       integral              32    'h0                           
  pready                       integral              1     'h0                           
  pslverr                      integral              1     'h0                           
  psel                         integral              1     'h0                           
  pwrite                       integral              1     'h0                           
  paddr                        integral              32    'h0                           
  pwdata                       integral              32    'h0                           
  apb_read_data_out            integral              32    'h0                           
  apb_read_data_valid          integral              1     'h0                           
  begin_time                   time                  64    1590000                       
  depth                        int                   32    'd2                           
  parent sequence (name)       string                4     jseq                          
  parent sequence (full name)  string                30    uvm_test_top.env.apj.seqr.jseq
  sequencer                    string                25    uvm_test_top.env.apj.seqr     
-----------------------------------------------------------------------------------------
 648233270 ------------- 648233270
-------------------------------------------------------------
Name                   Type                  Size  Value     
-------------------------------------------------------------
trans                  apb_jtag_transaction  -     @4713     
  transfer             integral              1     'h0       
  read                 integral              1     'h1       
  write                integral              1     'h0       
  apb_paddr            integral              32    'h834128f8
  apb_write_data       integral              32    'hcae5994d
  prdata               integral              32    'h26a34136
  pready               integral              1     'h0       
  pslverr              integral              1     'h0       
  psel                 integral              1     'h1       
  pwrite               integral              1     'h0       
  paddr                integral              32    'h834128f8
  pwdata               integral              32    'h0       
  apb_read_data_out    integral              32    'h26a34136
  apb_read_data_valid  integral              1     'h0       
-------------------------------------------------------------
the value of slave error is 1
-----------------------------------------------------------------------------------------
Name                           Type                  Size  Value                         
-----------------------------------------------------------------------------------------
write_transaction              apb_jtag_transaction  -     @4740                         
  transfer                     integral              1     'h1                           
  read                         integral              1     'h0                           
  write                        integral              1     'h1                           
  apb_paddr                    integral              32    'hd351d4b6                    
  apb_write_data               integral              32    'h54922997                    
  prdata                       integral              32    'h0                           
  pready                       integral              1     'h0                           
  pslverr                      integral              1     'h0                           
  psel                         integral              1     'h0                           
  pwrite                       integral              1     'h0                           
  paddr                        integral              32    'h0                           
  pwdata                       integral              32    'h0                           
  apb_read_data_out            integral              32    'h0                           
  apb_read_data_valid          integral              1     'h0                           
  begin_time                   time                  64    1650000                       
  depth                        int                   32    'd2                           
  parent sequence (name)       string                4     jseq                          
  parent sequence (full name)  string                30    uvm_test_top.env.apj.seqr.jseq
  sequencer                    string                25    uvm_test_top.env.apj.seqr     
-----------------------------------------------------------------------------------------
 648233270 -------------         0
-------------------------------------------------------------
Name                   Type                  Size  Value     
-------------------------------------------------------------
trans                  apb_jtag_transaction  -     @4795     
  transfer             integral              1     'h0       
  read                 integral              1     'h0       
  write                integral              1     'h1       
  apb_paddr            integral              32    'hd351d4b6
  apb_write_data       integral              32    'h54922997
  prdata               integral              32    'h0       
  pready               integral              1     'h0       
  pslverr              integral              1     'h0       
  psel                 integral              1     'h1       
  pwrite               integral              1     'h0       
  paddr                integral              32    'hd351d4b6
  pwdata               integral              32    'h54922997
  apb_read_data_out    integral              32    'h0       
  apb_read_data_valid  integral              1     'h0       
-------------------------------------------------------------
 648233270 -------------         0
-------------------------------------------------------------
Name                   Type                  Size  Value     
-------------------------------------------------------------
trans                  apb_jtag_transaction  -     @4715     
  transfer             integral              1     'h0       
  read                 integral              1     'h0       
  write                integral              1     'h1       
  apb_paddr            integral              32    'hd351d4b6
  apb_write_data       integral              32    'h54922997
  prdata               integral              32    'h0       
  pready               integral              1     'h0       
  pslverr              integral              1     'h0       
  psel                 integral              1     'h1       
  pwrite               integral              1     'h0       
  paddr                integral              32    'hd351d4b6
  pwdata               integral              32    'h54922997
  apb_read_data_out    integral              32    'h0       
  apb_read_data_valid  integral              1     'h0       
-------------------------------------------------------------
data written into slave at memory [d351d4b6] = 54922997
 648233270 -------------         0
-------------------------------------------------------------
Name                   Type                  Size  Value     
-------------------------------------------------------------
trans                  apb_jtag_transaction  -     @4741     
  transfer             integral              1     'h0       
  read                 integral              1     'h0       
