xrun(64): 22.09-s003: (c) Copyright 1995-2022 Cadence Design Systems, Inc.
TOOL:	xrun(64)	22.09-s003: Started on Dec 26, 2024 at 18:38:04 IST
xrun
	-f compile_file.f
		../APB_RTL/APB_Master.v
		../uvm_testbench/apb_top/apb_interface.sv
		../uvm_testbench/apb_top/apb_test_pkg.sv
		../uvm_testbench/apb_test/apb_top.sv
	-uvmhome CDNS-1.1d
	+UVM_TESTNAME=apb_write_test
	-seed 78655
	-debug
	-access +rwc
	-covdut apb_master
	-covworkdir cov_work
	-logfile logs/20241226_183803_apb_write_test_78655/apb_write_test_None_20241226_183803.log
	+UVM_VERBOSITY=UVM_MEDIUM
	-coverage all
	-covoverwrite

   User defined plus("+") options:
	+UVM_VERBOSITY=UVM_MEDIUM

Loading snapshot worklib.apb_top:sv .................... Done
SVSEED set from command line: 78655
xmsim: *W,DSEM2009: This SystemVerilog design is simulated as per IEEE 1800-2009 SystemVerilog simulation semantics. Use -disable_sem2009 option for turning off SV 2009 simulation semantics.
xcelium> source /tools/cadence_march2021/XCELIUM2209/tools/xcelium/files/xmsimrc
xcelium> source /tools/cadence_march2021/XCELIUM2209/tools/methodology/UVM/CDNS-1.1d/additions/sv/files/tcl/uvm_sim.tcl
xcelium> run
----------------------------------------------------------------
CDNS-UVM-1.1d (22.09-s003)
(C) 2007-2013 Mentor Graphics Corporation
(C) 2007-2013 Cadence Design Systems, Inc.
(C) 2006-2013 Synopsys, Inc.
(C) 2011-2013 Cypress Semiconductor Corp.
----------------------------------------------------------------

  ***********       IMPORTANT RELEASE NOTES         ************

  You are using a version of the UVM library that has been compiled
  with `UVM_NO_DEPRECATED undefined.
  See http://www.eda.org/svdb/view.php?id=3313 for more details.

  You are using a version of the UVM library that has been compiled
  with `UVM_OBJECT_MUST_HAVE_CONSTRUCTOR undefined.
  See http://www.eda.org/svdb/view.php?id=3770 for more details.

      (Specify +UVM_NO_RELNOTES to turn off this notice)

UVM_INFO @ 0: reporter [RNTST] Running test apb_write_test...
UVM_INFO ../uvm_testbench/apb_agent/apb_agent_jtag.sv(16) @ 0: uvm_test_top.env.apj [apb_agent_jtag] build phase started
UVM_INFO ../uvm_testbench/apb_agent/apb_driver.sv(11) @ 0: uvm_test_top.env.apj.dri [apb_driver_jtag] build phase started
UVM_INFO ../uvm_testbench/apb_agent/apb_monitor.sv(16) @ 0: uvm_test_top.env.apj.mon [apb_monitor] build phase started
UVM_INFO ../uvm_testbench/apb_agent/apb_agent_slave.sv(41) @ 0: uvm_test_top.env.aps [apb_slave_agent] build phase started
UVM_INFO ../uvm_testbench/apb_agent/apb_driver_slave.sv(12) @ 0: uvm_test_top.env.aps.dri_s [apb_slave_driver] build phase started
UVM_INFO ../uvm_testbench/apb_sequence/apb_sequence_write.sv(55) @ 0: uvm_test_top.env.apj.seqr@@jseq [apb_jtag_write_sequence] in sequene body
UVM_INFO ../uvm_testbench/apb_sequence/apb_sequence_slave_rw.sv(13) @ 0: uvm_test_top.env.aps.seqr_s@@slseq [apb_slave_fixed_response_seq] in sequence body
UVM_INFO ../uvm_testbench/apb_agent/apb_driver_slave.sv(25) @ 0: uvm_test_top.env.aps.dri_s [apb_slave_driver] psel _driver running
--------------------------------------------------------
Name                   Type                  Size  Value
--------------------------------------------------------
trans                  apb_jtag_transaction  -     @4641
  transfer             integral              1     'h0  
  read                 integral              1     'h0  
  write                integral              1     'h0  
  apb_paddr            integral              32    'h0  
  apb_write_data       integral              32    'h0  
  prdata               integral              32    'h0  
  pready               integral              1     'h0  
  pslverr              integral              1     'h0  
  psel                 integral              1     'h0  
  pwrite               integral              1     'h0  
  paddr                integral              32    'h0  
  pwdata               integral              32    'h0  
  apb_read_data_out    integral              32    'h0  
  apb_read_data_valid  integral              1     'h0  
--------------------------------------------------------
UVM_INFO ../uvm_testbench/apb_sequence/apb_sequence_write.sv(65) @ 20000: uvm_test_top.env.apj.seqr@@jseq [apb_jtag_write_sequence] jtag sequence completed
--------------------------------------------------------
Name                   Type                  Size  Value
--------------------------------------------------------
trans                  apb_jtag_transaction  -     @4785
  transfer             integral              1     'h0  
  read                 integral              1     'h0  
  write                integral              1     'h0  
  apb_paddr            integral              32    'h0  
  apb_write_data       integral              32    'h0  
  prdata               integral              32    'h0  
  pready               integral              1     'h0  
  pslverr              integral              1     'h0  
  psel                 integral              1     'h0  
  pwrite               integral              1     'h0  
  paddr                integral              32    'h0  
  pwdata               integral              32    'h0  
  apb_read_data_out    integral              32    'h0  
  apb_read_data_valid  integral              1     'h0  
--------------------------------------------------------
the value of slave error is 0
UVM_INFO ../uvm_testbench/apb_sequence/apb_sequence_slave_rw.sv(22) @ 30000: uvm_test_top.env.aps.seqr_s@@slseq [apb_slave_fixed_response_seq] slave sequence completed
UVM_INFO ../uvm_testbench/apb_sequence/apb_sequence_write.sv(55) @ 30000: uvm_test_top.env.apj.seqr@@jseq [apb_jtag_write_sequence] in sequene body
UVM_INFO ../uvm_testbench/apb_sequence/apb_sequence_slave_rw.sv(13) @ 30000: uvm_test_top.env.aps.seqr_s@@slseq [apb_slave_fixed_response_seq] in sequence body
UVM_INFO ../uvm_testbench/apb_agent/apb_driver_slave.sv(25) @ 30000: uvm_test_top.env.aps.dri_s [apb_slave_driver] psel _driver running
UVM_INFO ../uvm_testbench/apb_agent/apb_driver.sv(24) @ 30000: uvm_test_top.env.apj.dri [apb_driver_jtag] write instructions from sequence received given
-----------------------------------------------------------------------------------------
Name                           Type                  Size  Value                         
-----------------------------------------------------------------------------------------
write_transaction              apb_jtag_transaction  -     @4763                         
  transfer                     integral              1     'h1                           
  read                         integral              1     'h0                           
  write                        integral              1     'h1                           
  apb_paddr                    integral              32    'h7b7e5509                    
  apb_write_data               integral              32    'h5308ea37                    
  prdata                       integral              32    'h0                           
  pready                       integral              1     'h0                           
  pslverr                      integral              1     'h0                           
  psel                         integral              1     'h0                           
  pwrite                       integral              1     'h0                           
  paddr                        integral              32    'h0                           
  pwdata                       integral              32    'h0                           
  apb_read_data_out            integral              32    'h0                           
  apb_read_data_valid          integral              1     'h0                           
  begin_time                   time                  64    30000                         
  depth                        int                   32    'd2                           
  parent sequence (name)       string                4     jseq                          
  parent sequence (full name)  string                30    uvm_test_top.env.apj.seqr.jseq
  sequencer                    string                25    uvm_test_top.env.apj.seqr     
-----------------------------------------------------------------------------------------
UVM_INFO ../uvm_testbench/apb_agent/apb_driver.sv(33) @ 30000: uvm_test_top.env.apj.dri [apb_driver_jtag] write instructions given
UVM_INFO ../uvm_testbench/apb_agent/apb_driver.sv(38) @ 30000: uvm_test_top.env.apj.dri [apb_driver_jtag] penable went low
-------------------------------------------------------------
Name                   Type                  Size  Value     
-------------------------------------------------------------
trans                  apb_jtag_transaction  -     @4789     
  transfer             integral              1     'h1       
  read                 integral              1     'h0       
  write                integral              1     'h1       
  apb_paddr            integral              32    'h7b7e5509
  apb_write_data       integral              32    'h5308ea37
  prdata               integral              32    'h0       
  pready               integral              1     'h0       
  pslverr              integral              1     'h0       
  psel                 integral              1     'h0       
  pwrite               integral              1     'h0       
  paddr                integral              32    'h0       
  pwdata               integral              32    'h0       
  apb_read_data_out    integral              32    'h0       
  apb_read_data_valid  integral              1     'h0       
-------------------------------------------------------------
UVM_INFO ../uvm_testbench/apb_agent/apb_driver_slave.sv(32) @ 70000: uvm_test_top.env.aps.dri_s [apb_slave_driver] psel detected high by slave
UVM_INFO ../uvm_testbench/apb_agent/apb_monitor.sv(62) @ 70000: uvm_test_top.env.apj.mon [apb_monitor] from monitor after sampling
-------------------------------------------------------------
Name                   Type                  Size  Value     
-------------------------------------------------------------
trans                  apb_jtag_transaction  -     @4789     
  transfer             integral              1     'h1       
  read                 integral              1     'h0       
  write                integral              1     'h1       
  apb_paddr            integral              32    'h7b7e5509
  apb_write_data       integral              32    'h5308ea37
  prdata               integral              32    'h0       
  pready               integral              1     'h0       
  pslverr              integral              1     'h0       
  psel                 integral              1     'h1       
  pwrite               integral              1     'h0       
  paddr                integral              32    'h7b7e5509
  pwdata               integral              32    'h5308ea37
  apb_read_data_out    integral              32    'h0       
  apb_read_data_valid  integral              1     'h0       
-------------------------------------------------------------
UVM_INFO ../uvm_testbench/apb_env/apb_scoreboard.sv(22) @ 70000: uvm_test_top.env.scb [apb_scoreboard] write operation performed successfully apb_write_data = 5308ea37,  apb_pwdata = 5308ea37
UVM_INFO ../uvm_testbench/apb_agent/apb_driver.sv(43) @ 90000: uvm_test_top.env.apj.dri [apb_driver_jtag] penable went high
-------------------------------------------------------------
Name                   Type                  Size  Value     
-------------------------------------------------------------
trans                  apb_jtag_transaction  -     @4790     
  transfer             integral              1     'h1       
  read                 integral              1     'h0       
  write                integral              1     'h1       
  apb_paddr            integral              32    'h7b7e5509
  apb_write_data       integral              32    'h5308ea37
  prdata               integral              32    'h0       
  pready               integral              1     'h0       
  pslverr              integral              1     'h0       
  psel                 integral              1     'h1       
  pwrite               integral              1     'h0       
  paddr                integral              32    'h7b7e5509
  pwdata               integral              32    'h5308ea37
  apb_read_data_out    integral              32    'h0       
  apb_read_data_valid  integral              1     'h0       
-------------------------------------------------------------
UVM_INFO ../uvm_testbench/apb_agent/apb_monitor.sv(62) @ 110000: uvm_test_top.env.apj.mon [apb_monitor] from monitor after sampling
-------------------------------------------------------------
Name                   Type                  Size  Value     
-------------------------------------------------------------
trans                  apb_jtag_transaction  -     @4790     
  transfer             integral              1     'h1       
  read                 integral              1     'h0       
  write                integral              1     'h1       
  apb_paddr            integral              32    'h7b7e5509
  apb_write_data       integral              32    'h5308ea37
  prdata               integral              32    'h0       
  pready               integral              1     'h0       
  pslverr              integral              1     'h0       
  psel                 integral              1     'h1       
  pwrite               integral              1     'h0       
  paddr                integral              32    'h7b7e5509
  pwdata               integral              32    'h5308ea37
  apb_read_data_out    integral              32    'h0       
  apb_read_data_valid  integral              1     'h0       
-------------------------------------------------------------
UVM_INFO ../uvm_testbench/apb_env/apb_scoreboard.sv(22) @ 110000: uvm_test_top.env.scb [apb_scoreboard] write operation performed successfully apb_write_data = 5308ea37,  apb_pwdata = 5308ea37
-------------------------------------------------------------
Name                   Type                  Size  Value     
-------------------------------------------------------------
trans                  apb_jtag_transaction  -     @4788     
  transfer             integral              1     'h1       
  read                 integral              1     'h0       
  write                integral              1     'h1       
  apb_paddr            integral              32    'h7b7e5509
  apb_write_data       integral              32    'h5308ea37
  prdata               integral              32    'h0       
  pready               integral              1     'h0       
  pslverr              integral              1     'h0       
  psel                 integral              1     'h1       
  pwrite               integral              1     'h0       
  paddr                integral              32    'h7b7e5509
  pwdata               integral              32    'h5308ea37
  apb_read_data_out    integral              32    'h0       
  apb_read_data_valid  integral              1     'h0       
-------------------------------------------------------------
UVM_INFO ../uvm_testbench/apb_agent/apb_monitor.sv(62) @ 150000: uvm_test_top.env.apj.mon [apb_monitor] from monitor after sampling
-------------------------------------------------------------
Name                   Type                  Size  Value     
-------------------------------------------------------------
trans                  apb_jtag_transaction  -     @4788     
  transfer             integral              1     'h1       
  read                 integral              1     'h0       
  write                integral              1     'h1       
  apb_paddr            integral              32    'h7b7e5509
  apb_write_data       integral              32    'h5308ea37
  prdata               integral              32    'h0       
  pready               integral              1     'h0       
  pslverr              integral              1     'h0       
  psel                 integral              1     'h1       
  pwrite               integral              1     'h0       
  paddr                integral              32    'h7b7e5509
  pwdata               integral              32    'h5308ea37
  apb_read_data_out    integral              32    'h0       
  apb_read_data_valid  integral              1     'h0       
-------------------------------------------------------------
UVM_INFO ../uvm_testbench/apb_env/apb_scoreboard.sv(22) @ 150000: uvm_test_top.env.scb [apb_scoreboard] write operation performed successfully apb_write_data = 5308ea37,  apb_pwdata = 5308ea37
-------------------------------------------------------------
Name                   Type                  Size  Value     
-------------------------------------------------------------
trans                  apb_jtag_transaction  -     @4820     
  transfer             integral              1     'h1       
  read                 integral              1     'h0       
  write                integral              1     'h1       
  apb_paddr            integral              32    'h7b7e5509
  apb_write_data       integral              32    'h5308ea37
  prdata               integral              32    'h0       
  pready               integral              1     'h0       
  pslverr              integral              1     'h0       
  psel                 integral              1     'h1       
  pwrite               integral              1     'h0       
  paddr                integral              32    'h7b7e5509
  pwdata               integral              32    'h5308ea37
  apb_read_data_out    integral              32    'h0       
  apb_read_data_valid  integral              1     'h0       
-------------------------------------------------------------
UVM_INFO ../uvm_testbench/apb_agent/apb_driver_slave.sv(38) @ 190000: uvm_test_top.env.aps.dri_s [apb_slave_driver] high enable detected by slave
data written into slave at memory [7b7e5509] = 5308ea37
UVM_INFO ../uvm_testbench/apb_agent/apb_monitor.sv(62) @ 190000: uvm_test_top.env.apj.mon [apb_monitor] from monitor after sampling
-------------------------------------------------------------
Name                   Type                  Size  Value     
-------------------------------------------------------------
trans                  apb_jtag_transaction  -     @4820     
  transfer             integral              1     'h1       
  read                 integral              1     'h0       
  write                integral              1     'h1       
  apb_paddr            integral              32    'h7b7e5509
  apb_write_data       integral              32    'h5308ea37
  prdata               integral              32    'h0       
  pready               integral              1     'h0       
  pslverr              integral              1     'h0       
  psel                 integral              1     'h1       
  pwrite               integral              1     'h0       
  paddr                integral              32    'h7b7e5509
  pwdata               integral              32    'h5308ea37
  apb_read_data_out    integral              32    'h0       
  apb_read_data_valid  integral              1     'h0       
-------------------------------------------------------------
UVM_INFO ../uvm_testbench/apb_env/apb_scoreboard.sv(22) @ 190000: uvm_test_top.env.scb [apb_scoreboard] write operation performed successfully apb_write_data = 5308ea37,  apb_pwdata = 5308ea37
-------------------------------------------------------------
Name                   Type                  Size  Value     
-------------------------------------------------------------
trans                  apb_jtag_transaction  -     @4810     
  transfer             integral              1     'h1       
  read                 integral              1     'h0       
  write                integral              1     'h1       
  apb_paddr            integral              32    'h7b7e5509
  apb_write_data       integral              32    'h5308ea37
  prdata               integral              32    'h0       
  pready               integral              1     'h0       
  pslverr              integral              1     'h0       
  psel                 integral              1     'h1       
  pwrite               integral              1     'h0       
  paddr                integral              32    'h7b7e5509
  pwdata               integral              32    'h5308ea37
  apb_read_data_out    integral              32    'h0       
  apb_read_data_valid  integral              1     'h0       
-------------------------------------------------------------
the value of slave error is 0
UVM_INFO ../uvm_testbench/apb_sequence/apb_sequence_slave_rw.sv(22) @ 210000: uvm_test_top.env.aps.seqr_s@@slseq [apb_slave_fixed_response_seq] slave sequence completed
UVM_INFO ../uvm_testbench/apb_agent/apb_driver.sv(50) @ 210000: uvm_test_top.env.apj.dri [apb_driver_jtag] penable went low for next transaction
UVM_INFO ../uvm_testbench/apb_agent/apb_driver.sv(51) @ 210000: uvm_test_top.env.apj.dri [apb_driver_jtag] transaction completed
UVM_INFO ../uvm_testbench/apb_sequence/apb_sequence_write.sv(65) @ 210000: uvm_test_top.env.apj.seqr@@jseq [apb_jtag_write_sequence] jtag sequence completed
UVM_INFO ../uvm_testbench/apb_sequence/apb_sequence_write.sv(55) @ 210000: uvm_test_top.env.apj.seqr@@jseq [apb_jtag_write_sequence] in sequene body
UVM_INFO ../uvm_testbench/apb_sequence/apb_sequence_slave_rw.sv(13) @ 210000: uvm_test_top.env.aps.seqr_s@@slseq [apb_slave_fixed_response_seq] in sequence body
UVM_INFO ../uvm_testbench/apb_agent/apb_driver.sv(24) @ 210000: uvm_test_top.env.apj.dri [apb_driver_jtag] write instructions from sequence received given
-----------------------------------------------------------------------------------------
Name                           Type                  Size  Value                         
-----------------------------------------------------------------------------------------
write_transaction              apb_jtag_transaction  -     @4757                         
  transfer                     integral              1     'h1                           
  read                         integral              1     'h1                           
  write                        integral              1     'h0                           
  apb_paddr                    integral              32    'h9fb73a52                    
  apb_write_data               integral              32    'h1379fe4d                    
  prdata                       integral              32    'h0                           
  pready                       integral              1     'h0                           
  pslverr                      integral              1     'h0                           
  psel                         integral              1     'h0                           
  pwrite                       integral              1     'h0                           
  paddr                        integral              32    'h0                           
  pwdata                       integral              32    'h0                           
  apb_read_data_out            integral              32    'h0                           
  apb_read_data_valid          integral              1     'h0                           
  begin_time                   time                  64    210000                        
  depth                        int                   32    'd2                           
  parent sequence (name)       string                4     jseq                          
  parent sequence (full name)  string                30    uvm_test_top.env.apj.seqr.jseq
  sequencer                    string                25    uvm_test_top.env.apj.seqr     
-----------------------------------------------------------------------------------------
UVM_INFO ../uvm_testbench/apb_agent/apb_driver.sv(33) @ 210000: uvm_test_top.env.apj.dri [apb_driver_jtag] write instructions given
UVM_INFO ../uvm_testbench/apb_agent/apb_driver.sv(38) @ 210000: uvm_test_top.env.apj.dri [apb_driver_jtag] penable went low
UVM_INFO ../uvm_testbench/apb_agent/apb_driver_slave.sv(25) @ 210000: uvm_test_top.env.aps.dri_s [apb_slave_driver] psel _driver running
UVM_INFO ../uvm_testbench/apb_agent/apb_driver_slave.sv(32) @ 230000: uvm_test_top.env.aps.dri_s [apb_slave_driver] psel detected high by slave
UVM_INFO ../uvm_testbench/apb_agent/apb_driver.sv(43) @ 250000: uvm_test_top.env.apj.dri [apb_driver_jtag] penable went high
UVM_INFO ../uvm_testbench/apb_agent/apb_driver_slave.sv(38) @ 310000: uvm_test_top.env.aps.dri_s [apb_slave_driver] high enable detected by slave
UVM_INFO ../uvm_testbench/apb_agent/apb_monitor.sv(62) @ 310000: uvm_test_top.env.apj.mon [apb_monitor] from monitor after sampling
-------------------------------------------------------------
Name                   Type                  Size  Value     
-------------------------------------------------------------
trans                  apb_jtag_transaction  -     @4810     
  transfer             integral              1     'h1       
  read                 integral              1     'h1       
  write                integral              1     'h0       
  apb_paddr            integral              32    'h9fb73a52
  apb_write_data       integral              32    'h1379fe4d
  prdata               integral              32    'h0       
  pready               integral              1     'h0       
  pslverr              integral              1     'h0       
  psel                 integral              1     'h1       
  pwrite               integral              1     'h0       
  paddr                integral              32    'h9fb73a52
  pwdata               integral              32    'h5308ea37
  apb_read_data_out    integral              32    'hff3d874a
  apb_read_data_valid  integral              1     'h0       
-------------------------------------------------------------
UVM_ERROR ../uvm_testbench/apb_env/apb_scoreboard.sv(29) @ 310000: uvm_test_top.env.scb [apb_scoreboard]  write operation failed apb_read_data_out = ff3d874a, apb.prdata = 00000000
-------------------------------------------------------------
Name                   Type                  Size  Value     
-------------------------------------------------------------
trans                  apb_jtag_transaction  -     @4755     
  transfer             integral              1     'h1       
  read                 integral              1     'h1       
  write                integral              1     'h0       
  apb_paddr            integral              32    'h9fb73a52
  apb_write_data       integral              32    'h1379fe4d
  prdata               integral              32    'hff3d874a
  pready               integral              1     'h0       
  pslverr              integral              1     'h1       
  psel                 integral              1     'h1       
  pwrite               integral              1     'h0       
  paddr                integral              32    'h9fb73a52
  pwdata               integral              32    'h1379fe4d
  apb_read_data_out    integral              32    'hff3d874a
  apb_read_data_valid  integral              1     'h1       
-------------------------------------------------------------
the value of slave error is 1
UVM_INFO ../uvm_testbench/apb_sequence/apb_sequence_slave_rw.sv(22) @ 330000: uvm_test_top.env.aps.seqr_s@@slseq [apb_slave_fixed_response_seq] slave sequence completed
UVM_INFO ../uvm_testbench/apb_agent/apb_driver.sv(50) @ 330000: uvm_test_top.env.apj.dri [apb_driver_jtag] penable went low for next transaction
UVM_INFO ../uvm_testbench/apb_agent/apb_driver.sv(51) @ 330000: uvm_test_top.env.apj.dri [apb_driver_jtag] transaction completed
UVM_INFO ../uvm_testbench/apb_sequence/apb_sequence_write.sv(65) @ 330000: uvm_test_top.env.apj.seqr@@jseq [apb_jtag_write_sequence] jtag sequence completed
UVM_INFO ../uvm_testbench/apb_sequence/apb_sequence_write.sv(55) @ 330000: uvm_test_top.env.apj.seqr@@jseq [apb_jtag_write_sequence] in sequene body
UVM_INFO ../uvm_testbench/apb_sequence/apb_sequence_slave_rw.sv(13) @ 330000: uvm_test_top.env.aps.seqr_s@@slseq [apb_slave_fixed_response_seq] in sequence body
UVM_INFO ../uvm_testbench/apb_agent/apb_driver.sv(24) @ 330000: uvm_test_top.env.apj.dri [apb_driver_jtag] write instructions from sequence received given
-----------------------------------------------------------------------------------------
Name                           Type                  Size  Value                         
-----------------------------------------------------------------------------------------
write_transaction              apb_jtag_transaction  -     @4808                         
  transfer                     integral              1     'h1                           
  read                         integral              1     'h0                           
  write                        integral              1     'h1                           
  apb_paddr                    integral              32    'h93981dc7                    
  apb_write_data               integral              32    'h25dc8d3e                    
  prdata                       integral              32    'h0                           
  pready                       integral              1     'h0                           
  pslverr                      integral              1     'h0                           
  psel                         integral              1     'h0                           
  pwrite                       integral              1     'h0                           
  paddr                        integral              32    'h0                           
  pwdata                       integral              32    'h0                           
  apb_read_data_out            integral              32    'h0                           
  apb_read_data_valid          integral              1     'h0                           
  begin_time                   time                  64    330000                        
  depth                        int                   32    'd2                           
  parent sequence (name)       string                4     jseq                          
  parent sequence (full name)  string                30    uvm_test_top.env.apj.seqr.jseq
  sequencer                    string                25    uvm_test_top.env.apj.seqr     
-----------------------------------------------------------------------------------------
UVM_INFO ../uvm_testbench/apb_agent/apb_driver.sv(33) @ 330000: uvm_test_top.env.apj.dri [apb_driver_jtag] write instructions given
UVM_INFO ../uvm_testbench/apb_agent/apb_driver.sv(38) @ 330000: uvm_test_top.env.apj.dri [apb_driver_jtag] penable went low
UVM_INFO ../uvm_testbench/apb_agent/apb_driver_slave.sv(25) @ 330000: uvm_test_top.env.aps.dri_s [apb_slave_driver] psel _driver running
UVM_INFO ../uvm_testbench/apb_agent/apb_driver_slave.sv(32) @ 350000: uvm_test_top.env.aps.dri_s [apb_slave_driver] psel detected high by slave
UVM_INFO ../uvm_testbench/apb_agent/apb_monitor.sv(62) @ 350000: uvm_test_top.env.apj.mon [apb_monitor] from monitor after sampling
-------------------------------------------------------------
Name                   Type                  Size  Value     
-------------------------------------------------------------
trans                  apb_jtag_transaction  -     @4755     
  transfer             integral              1     'h1       
  read                 integral              1     'h0       
  write                integral              1     'h1       
  apb_paddr            integral              32    'h93981dc7
  apb_write_data       integral              32    'h25dc8d3e
  prdata               integral              32    'hff3d874a
  pready               integral              1     'h0       
  pslverr              integral              1     'h0       
  psel                 integral              1     'h1       
  pwrite               integral              1     'h0       
  paddr                integral              32    'h93981dc7
  pwdata               integral              32    'h25dc8d3e
  apb_read_data_out    integral              32    'hff3d874a
  apb_read_data_valid  integral              1     'h1       
-------------------------------------------------------------
UVM_INFO ../uvm_testbench/apb_env/apb_scoreboard.sv(22) @ 350000: uvm_test_top.env.scb [apb_scoreboard] write operation performed successfully apb_write_data = 25dc8d3e,  apb_pwdata = 25dc8d3e
UVM_INFO ../uvm_testbench/apb_agent/apb_driver_slave.sv(38) @ 350000: uvm_test_top.env.aps.dri_s [apb_slave_driver] high enable detected by slave
data written into slave at memory [93981dc7] = 25dc8d3e
UVM_INFO ../uvm_testbench/apb_agent/apb_driver.sv(43) @ 370000: uvm_test_top.env.apj.dri [apb_driver_jtag] penable went high
-------------------------------------------------------------
Name                   Type                  Size  Value     
-------------------------------------------------------------
trans                  apb_jtag_transaction  -     @243      
  transfer             integral              1     'h1       
  read                 integral              1     'h0       
  write                integral              1     'h1       
  apb_paddr            integral              32    'h93981dc7
  apb_write_data       integral              32    'h25dc8d3e
  prdata               integral              32    'hff3d874a
  pready               integral              1     'h0       
  pslverr              integral              1     'h1       
  psel                 integral              1     'h1       
  pwrite               integral              1     'h0       
  paddr                integral              32    'h93981dc7
  pwdata               integral              32    'h25dc8d3e
  apb_read_data_out    integral              32    'h0       
  apb_read_data_valid  integral              1     'h0       
-------------------------------------------------------------
the value of slave error is 1
UVM_INFO ../uvm_testbench/apb_sequence/apb_sequence_slave_rw.sv(22) @ 370000: uvm_test_top.env.aps.seqr_s@@slseq [apb_slave_fixed_response_seq] slave sequence completed
UVM_INFO ../uvm_testbench/apb_agent/apb_driver.sv(50) @ 370000: uvm_test_top.env.apj.dri [apb_driver_jtag] penable went low for next transaction
UVM_INFO ../uvm_testbench/apb_agent/apb_driver.sv(51) @ 370000: uvm_test_top.env.apj.dri [apb_driver_jtag] transaction completed
UVM_INFO ../uvm_testbench/apb_sequence/apb_sequence_write.sv(65) @ 370000: uvm_test_top.env.apj.seqr@@jseq [apb_jtag_write_sequence] jtag sequence completed
UVM_INFO ../uvm_testbench/apb_sequence/apb_sequence_write.sv(55) @ 370000: uvm_test_top.env.apj.seqr@@jseq [apb_jtag_write_sequence] in sequene body
UVM_INFO ../uvm_testbench/apb_sequence/apb_sequence_slave_rw.sv(13) @ 370000: uvm_test_top.env.aps.seqr_s@@slseq [apb_slave_fixed_response_seq] in sequence body
UVM_INFO ../uvm_testbench/apb_agent/apb_driver.sv(24) @ 370000: uvm_test_top.env.apj.dri [apb_driver_jtag] write instructions from sequence received given
-----------------------------------------------------------------------------------------
Name                           Type                  Size  Value                         
-----------------------------------------------------------------------------------------
write_transaction              apb_jtag_transaction  -     @4770                         
  transfer                     integral              1     'h1                           
  read                         integral              1     'h1                           
  write                        integral              1     'h0                           
  apb_paddr                    integral              32    'h6ccf33e2                    
  apb_write_data               integral              32    'hbe03748e                    
  prdata                       integral              32    'h0                           
  pready                       integral              1     'h0                           
  pslverr                      integral              1     'h0                           
  psel                         integral              1     'h0                           
  pwrite                       integral              1     'h0                           
  paddr                        integral              32    'h0                           
  pwdata                       integral              32    'h0                           
  apb_read_data_out            integral              32    'h0                           
  apb_read_data_valid          integral              1     'h0                           
  begin_time                   time                  64    370000                        
  depth                        int                   32    'd2                           
  parent sequence (name)       string                4     jseq                          
  parent sequence (full name)  string                30    uvm_test_top.env.apj.seqr.jseq
  sequencer                    string                25    uvm_test_top.env.apj.seqr     
-----------------------------------------------------------------------------------------
UVM_INFO ../uvm_testbench/apb_agent/apb_driver.sv(33) @ 370000: uvm_test_top.env.apj.dri [apb_driver_jtag] write instructions given
UVM_INFO ../uvm_testbench/apb_agent/apb_driver.sv(38) @ 370000: uvm_test_top.env.apj.dri [apb_driver_jtag] penable went low
UVM_INFO ../uvm_testbench/apb_agent/apb_driver_slave.sv(25) @ 370000: uvm_test_top.env.aps.dri_s [apb_slave_driver] psel _driver running
UVM_INFO ../uvm_testbench/apb_agent/apb_driver_slave.sv(32) @ 390000: uvm_test_top.env.aps.dri_s [apb_slave_driver] psel detected high by slave
UVM_INFO ../uvm_testbench/apb_agent/apb_driver_slave.sv(38) @ 390000: uvm_test_top.env.aps.dri_s [apb_slave_driver] high enable detected by slave
UVM_INFO ../uvm_testbench/apb_agent/apb_monitor.sv(62) @ 390000: uvm_test_top.env.apj.mon [apb_monitor] from monitor after sampling
-------------------------------------------------------------
Name                   Type                  Size  Value     
-------------------------------------------------------------
trans                  apb_jtag_transaction  -     @243      
  transfer             integral              1     'h1       
  read                 integral              1     'h1       
  write                integral              1     'h0       
  apb_paddr            integral              32    'h6ccf33e2
  apb_write_data       integral              32    'hbe03748e
  prdata               integral              32    'hff3d874a
  pready               integral              1     'h0       
  pslverr              integral              1     'h0       
  psel                 integral              1     'h1       
  pwrite               integral              1     'h0       
  paddr                integral              32    'h6ccf33e2
  pwdata               integral              32    'h25dc8d3e
  apb_read_data_out    integral              32    'hff3d874a
  apb_read_data_valid  integral              1     'h0       
-------------------------------------------------------------
UVM_INFO ../uvm_testbench/apb_env/apb_scoreboard.sv(27) @ 390000: uvm_test_top.env.scb [apb_scoreboard] write operation performed successfully apb_read_data_out = ff3d874a,  apb_prdata = ff3d874a
UVM_INFO ../uvm_testbench/apb_agent/apb_driver.sv(43) @ 410000: uvm_test_top.env.apj.dri [apb_driver_jtag] penable went high
-------------------------------------------------------------
Name                   Type                  Size  Value     
-------------------------------------------------------------
trans                  apb_jtag_transaction  -     @4798     
  transfer             integral              1     'h1       
  read                 integral              1     'h1       
  write                integral              1     'h0       
  apb_paddr            integral              32    'h6ccf33e2
  apb_write_data       integral              32    'hbe03748e
  prdata               integral              32    'h1af685e2
  pready               integral              1     'h0       
  pslverr              integral              1     'h0       
  psel                 integral              1     'h1       
  pwrite               integral              1     'h0       
  paddr                integral              32    'h6ccf33e2
  pwdata               integral              32    'hbe03748e
  apb_read_data_out    integral              32    'h1af685e2
  apb_read_data_valid  integral              1     'h1       
-------------------------------------------------------------
the value of slave error is 0
UVM_INFO ../uvm_testbench/apb_sequence/apb_sequence_slave_rw.sv(22) @ 410000: uvm_test_top.env.aps.seqr_s@@slseq [apb_slave_fixed_response_seq] slave sequence completed
UVM_INFO ../uvm_testbench/apb_agent/apb_driver.sv(50) @ 410000: uvm_test_top.env.apj.dri [apb_driver_jtag] penable went low for next transaction
UVM_INFO ../uvm_testbench/apb_agent/apb_driver.sv(51) @ 410000: uvm_test_top.env.apj.dri [apb_driver_jtag] transaction completed
UVM_INFO ../uvm_testbench/apb_sequence/apb_sequence_write.sv(65) @ 410000: uvm_test_top.env.apj.seqr@@jseq [apb_jtag_write_sequence] jtag sequence completed
UVM_INFO ../uvm_testbench/apb_sequence/apb_sequence_write.sv(55) @ 410000: uvm_test_top.env.apj.seqr@@jseq [apb_jtag_write_sequence] in sequene body
UVM_INFO ../uvm_testbench/apb_sequence/apb_sequence_slave_rw.sv(13) @ 410000: uvm_test_top.env.aps.seqr_s@@slseq [apb_slave_fixed_response_seq] in sequence body
UVM_INFO ../uvm_testbench/apb_agent/apb_driver.sv(24) @ 410000: uvm_test_top.env.apj.dri [apb_driver_jtag] write instructions from sequence received given
-----------------------------------------------------------------------------------------
Name                           Type                  Size  Value                         
-----------------------------------------------------------------------------------------
write_transaction              apb_jtag_transaction  -     @4735                         
  transfer                     integral              1     'h1                           
  read                         integral              1     'h1                           
  write                        integral              1     'h0                           
  apb_paddr                    integral              32    'hd4a0e868                    
  apb_write_data               integral              32    'h1e735f35                    
  prdata                       integral              32    'h0                           
  pready                       integral              1     'h0                           
  pslverr                      integral              1     'h0                           
  psel                         integral              1     'h0                           
  pwrite                       integral              1     'h0                           
  paddr                        integral              32    'h0                           
  pwdata                       integral              32    'h0                           
  apb_read_data_out            integral              32    'h0                           
  apb_read_data_valid          integral              1     'h0                           
  begin_time                   time                  64    410000                        
  depth                        int                   32    'd2                           
  parent sequence (name)       string                4     jseq                          
  parent sequence (full name)  string                30    uvm_test_top.env.apj.seqr.jseq
  sequencer                    string                25    uvm_test_top.env.apj.seqr     
-----------------------------------------------------------------------------------------
UVM_INFO ../uvm_testbench/apb_agent/apb_driver.sv(33) @ 410000: uvm_test_top.env.apj.dri [apb_driver_jtag] write instructions given
UVM_INFO ../uvm_testbench/apb_agent/apb_driver.sv(38) @ 410000: uvm_test_top.env.apj.dri [apb_driver_jtag] penable went low
UVM_INFO ../uvm_testbench/apb_agent/apb_driver_slave.sv(25) @ 410000: uvm_test_top.env.aps.dri_s [apb_slave_driver] psel _driver running
UVM_INFO ../uvm_testbench/apb_agent/apb_driver_slave.sv(32) @ 430000: uvm_test_top.env.aps.dri_s [apb_slave_driver] psel detected high by slave
UVM_INFO ../uvm_testbench/apb_agent/apb_driver.sv(43) @ 450000: uvm_test_top.env.apj.dri [apb_driver_jtag] penable went high
UVM_INFO ../uvm_testbench/apb_agent/apb_driver_slave.sv(38) @ 570000: uvm_test_top.env.aps.dri_s [apb_slave_driver] high enable detected by slave
UVM_INFO ../uvm_testbench/apb_agent/apb_monitor.sv(62) @ 570000: uvm_test_top.env.apj.mon [apb_monitor] from monitor after sampling
-------------------------------------------------------------
Name                   Type                  Size  Value     
-------------------------------------------------------------
trans                  apb_jtag_transaction  -     @4798     
  transfer             integral              1     'h1       
  read                 integral              1     'h1       
  write                integral              1     'h0       
  apb_paddr            integral              32    'hd4a0e868
  apb_write_data       integral              32    'h1e735f35
  prdata               integral              32    'h1af685e2
  pready               integral              1     'h0       
  pslverr              integral              1     'h0       
  psel                 integral              1     'h1       
  pwrite               integral              1     'h0       
  paddr                integral              32    'hd4a0e868
  pwdata               integral              32    'hbe03748e
  apb_read_data_out    integral              32    'h128ff28 
  apb_read_data_valid  integral              1     'h1       
-------------------------------------------------------------
UVM_ERROR ../uvm_testbench/apb_env/apb_scoreboard.sv(29) @ 570000: uvm_test_top.env.scb [apb_scoreboard]  write operation failed apb_read_data_out = 0128ff28, apb.prdata = 1af685e2
-------------------------------------------------------------
Name                   Type                  Size  Value     
-------------------------------------------------------------
trans                  apb_jtag_transaction  -     @4789     
  transfer             integral              1     'h1       
  read                 integral              1     'h1       
  write                integral              1     'h0       
  apb_paddr            integral              32    'hd4a0e868
  apb_write_data       integral              32    'h1e735f35
  prdata               integral              32    'h128ff28 
  pready               integral              1     'h0       
  pslverr              integral              1     'h1       
  psel                 integral              1     'h1       
  pwrite               integral              1     'h0       
  paddr                integral              32    'hd4a0e868
  pwdata               integral              32    'h1e735f35
  apb_read_data_out    integral              32    'h128ff28 
  apb_read_data_valid  integral              1     'h1       
-------------------------------------------------------------
the value of slave error is 1
UVM_INFO ../uvm_testbench/apb_sequence/apb_sequence_slave_rw.sv(22) @ 590000: uvm_test_top.env.aps.seqr_s@@slseq [apb_slave_fixed_response_seq] slave sequence completed
UVM_INFO ../uvm_testbench/apb_agent/apb_driver.sv(50) @ 590000: uvm_test_top.env.apj.dri [apb_driver_jtag] penable went low for next transaction
UVM_INFO ../uvm_testbench/apb_agent/apb_driver.sv(51) @ 590000: uvm_test_top.env.apj.dri [apb_driver_jtag] transaction completed
UVM_INFO ../uvm_testbench/apb_sequence/apb_sequence_write.sv(65) @ 590000: uvm_test_top.env.apj.seqr@@jseq [apb_jtag_write_sequence] jtag sequence completed
UVM_INFO ../uvm_testbench/apb_sequence/apb_sequence_write.sv(55) @ 590000: uvm_test_top.env.apj.seqr@@jseq [apb_jtag_write_sequence] in sequene body
UVM_INFO ../uvm_testbench/apb_sequence/apb_sequence_slave_rw.sv(13) @ 590000: uvm_test_top.env.aps.seqr_s@@slseq [apb_slave_fixed_response_seq] in sequence body
UVM_INFO ../uvm_testbench/apb_agent/apb_driver.sv(24) @ 590000: uvm_test_top.env.apj.dri [apb_driver_jtag] write instructions from sequence received given
-----------------------------------------------------------------------------------------
Name                           Type                  Size  Value                         
-----------------------------------------------------------------------------------------
write_transaction              apb_jtag_transaction  -     @4662                         
  transfer                     integral              1     'h1                           
  read                         integral              1     'h1                           
  write                        integral              1     'h0                           
  apb_paddr                    integral              32    'h734d9954                    
  apb_write_data               integral              32    'h9b86dd14                    
  prdata                       integral              32    'h0                           
  pready                       integral              1     'h0                           
  pslverr                      integral              1     'h0                           
  psel                         integral              1     'h0                           
  pwrite                       integral              1     'h0                           
  paddr                        integral              32    'h0                           
  pwdata                       integral              32    'h0                           
  apb_read_data_out            integral              32    'h0                           
  apb_read_data_valid          integral              1     'h0                           
  begin_time                   time                  64    590000                        
  depth                        int                   32    'd2                           
  parent sequence (name)       string                4     jseq                          
  parent sequence (full name)  string                30    uvm_test_top.env.apj.seqr.jseq
  sequencer                    string                25    uvm_test_top.env.apj.seqr     
-----------------------------------------------------------------------------------------
UVM_INFO ../uvm_testbench/apb_agent/apb_driver.sv(33) @ 590000: uvm_test_top.env.apj.dri [apb_driver_jtag] write instructions given
UVM_INFO ../uvm_testbench/apb_agent/apb_driver.sv(38) @ 590000: uvm_test_top.env.apj.dri [apb_driver_jtag] penable went low
UVM_INFO ../uvm_testbench/apb_agent/apb_driver_slave.sv(25) @ 590000: uvm_test_top.env.aps.dri_s [apb_slave_driver] psel _driver running
UVM_INFO ../uvm_testbench/apb_agent/apb_driver_slave.sv(32) @ 610000: uvm_test_top.env.aps.dri_s [apb_slave_driver] psel detected high by slave
UVM_INFO ../uvm_testbench/apb_agent/apb_driver_slave.sv(38) @ 610000: uvm_test_top.env.aps.dri_s [apb_slave_driver] high enable detected by slave
UVM_INFO ../uvm_testbench/apb_agent/apb_monitor.sv(62) @ 610000: uvm_test_top.env.apj.mon [apb_monitor] from monitor after sampling
-------------------------------------------------------------
Name                   Type                  Size  Value     
-------------------------------------------------------------
trans                  apb_jtag_transaction  -     @4789     
  transfer             integral              1     'h1       
  read                 integral              1     'h1       
  write                integral              1     'h0       
  apb_paddr            integral              32    'h734d9954
  apb_write_data       integral              32    'h9b86dd14
  prdata               integral              32    'h128ff28 
  pready               integral              1     'h0       
  pslverr              integral              1     'h0       
  psel                 integral              1     'h1       
  pwrite               integral              1     'h0       
  paddr                integral              32    'h734d9954
  pwdata               integral              32    'h1e735f35
  apb_read_data_out    integral              32    'h128ff28 
  apb_read_data_valid  integral              1     'h1       
-------------------------------------------------------------
UVM_INFO ../uvm_testbench/apb_env/apb_scoreboard.sv(27) @ 610000: uvm_test_top.env.scb [apb_scoreboard] write operation performed successfully apb_read_data_out = 0128ff28,  apb_prdata = 0128ff28
UVM_INFO ../uvm_testbench/apb_agent/apb_driver.sv(43) @ 630000: uvm_test_top.env.apj.dri [apb_driver_jtag] penable went high
-------------------------------------------------------------
Name                   Type                  Size  Value     
-------------------------------------------------------------
trans                  apb_jtag_transaction  -     @4647     
  transfer             integral              1     'h1       
  read                 integral              1     'h1       
  write                integral              1     'h0       
  apb_paddr            integral              32    'h734d9954
  apb_write_data       integral              32    'h9b86dd14
  prdata               integral              32    'h178cbc5 
  pready               integral              1     'h0       
  pslverr              integral              1     'h0       
  psel                 integral              1     'h1       
  pwrite               integral              1     'h0       
  paddr                integral              32    'h734d9954
  pwdata               integral              32    'h9b86dd14
  apb_read_data_out    integral              32    'h178cbc5 
  apb_read_data_valid  integral              1     'h1       
-------------------------------------------------------------
the value of slave error is 0
UVM_INFO ../uvm_testbench/apb_sequence/apb_sequence_slave_rw.sv(22) @ 630000: uvm_test_top.env.aps.seqr_s@@slseq [apb_slave_fixed_response_seq] slave sequence completed
UVM_INFO ../uvm_testbench/apb_agent/apb_driver.sv(50) @ 630000: uvm_test_top.env.apj.dri [apb_driver_jtag] penable went low for next transaction
UVM_INFO ../uvm_testbench/apb_agent/apb_driver.sv(51) @ 630000: uvm_test_top.env.apj.dri [apb_driver_jtag] transaction completed
UVM_INFO ../uvm_testbench/apb_sequence/apb_sequence_write.sv(65) @ 630000: uvm_test_top.env.apj.seqr@@jseq [apb_jtag_write_sequence] jtag sequence completed
UVM_INFO ../uvm_testbench/apb_sequence/apb_sequence_write.sv(55) @ 630000: uvm_test_top.env.apj.seqr@@jseq [apb_jtag_write_sequence] in sequene body
UVM_INFO ../uvm_testbench/apb_sequence/apb_sequence_slave_rw.sv(13) @ 630000: uvm_test_top.env.aps.seqr_s@@slseq [apb_slave_fixed_response_seq] in sequence body
UVM_INFO ../uvm_testbench/apb_agent/apb_driver.sv(24) @ 630000: uvm_test_top.env.apj.dri [apb_driver_jtag] write instructions from sequence received given
-----------------------------------------------------------------------------------------
Name                           Type                  Size  Value                         
-----------------------------------------------------------------------------------------
write_transaction              apb_jtag_transaction  -     @4679                         
  transfer                     integral              1     'h1                           
  read                         integral              1     'h1                           
  write                        integral              1     'h0                           
  apb_paddr                    integral              32    'hbc751f56                    
  apb_write_data               integral              32    'he2d21352                    
  prdata                       integral              32    'h0                           
  pready                       integral              1     'h0                           
  pslverr                      integral              1     'h0                           
  psel                         integral              1     'h0                           
  pwrite                       integral              1     'h0                           
  paddr                        integral              32    'h0                           
  pwdata                       integral              32    'h0                           
  apb_read_data_out            integral              32    'h0                           
  apb_read_data_valid          integral              1     'h0                           
  begin_time                   time                  64    630000                        
  depth                        int                   32    'd2                           
  parent sequence (name)       string                4     jseq                          
  parent sequence (full name)  string                30    uvm_test_top.env.apj.seqr.jseq
  sequencer                    string                25    uvm_test_top.env.apj.seqr     
-----------------------------------------------------------------------------------------
UVM_INFO ../uvm_testbench/apb_agent/apb_driver.sv(33) @ 630000: uvm_test_top.env.apj.dri [apb_driver_jtag] write instructions given
UVM_INFO ../uvm_testbench/apb_agent/apb_driver.sv(38) @ 630000: uvm_test_top.env.apj.dri [apb_driver_jtag] penable went low
UVM_INFO ../uvm_testbench/apb_agent/apb_driver_slave.sv(25) @ 630000: uvm_test_top.env.aps.dri_s [apb_slave_driver] psel _driver running
UVM_INFO ../uvm_testbench/apb_agent/apb_driver_slave.sv(32) @ 650000: uvm_test_top.env.aps.dri_s [apb_slave_driver] psel detected high by slave
UVM_INFO ../uvm_testbench/apb_agent/apb_driver.sv(43) @ 670000: uvm_test_top.env.apj.dri [apb_driver_jtag] penable went high
UVM_INFO ../uvm_testbench/apb_agent/apb_driver_slave.sv(38) @ 770000: uvm_test_top.env.aps.dri_s [apb_slave_driver] high enable detected by slave
UVM_INFO ../uvm_testbench/apb_agent/apb_monitor.sv(62) @ 770000: uvm_test_top.env.apj.mon [apb_monitor] from monitor after sampling
-------------------------------------------------------------
Name                   Type                  Size  Value     
-------------------------------------------------------------
trans                  apb_jtag_transaction  -     @4647     
  transfer             integral              1     'h1       
  read                 integral              1     'h1       
  write                integral              1     'h0       
  apb_paddr            integral              32    'hbc751f56
  apb_write_data       integral              32    'he2d21352
  prdata               integral              32    'h178cbc5 
  pready               integral              1     'h0       
  pslverr              integral              1     'h0       
  psel                 integral              1     'h1       
  pwrite               integral              1     'h0       
  paddr                integral              32    'hbc751f56
  pwdata               integral              32    'h9b86dd14
  apb_read_data_out    integral              32    'hcca4dd2c
  apb_read_data_valid  integral              1     'h1       
-------------------------------------------------------------
UVM_ERROR ../uvm_testbench/apb_env/apb_scoreboard.sv(29) @ 770000: uvm_test_top.env.scb [apb_scoreboard]  write operation failed apb_read_data_out = cca4dd2c, apb.prdata = 0178cbc5
-------------------------------------------------------------
Name                   Type                  Size  Value     
-------------------------------------------------------------
trans                  apb_jtag_transaction  -     @4798     
  transfer             integral              1     'h1       
  read                 integral              1     'h1       
  write                integral              1     'h0       
  apb_paddr            integral              32    'hbc751f56
  apb_write_data       integral              32    'he2d21352
  prdata               integral              32    'hcca4dd2c
  pready               integral              1     'h0       
  pslverr              integral              1     'h1       
  psel                 integral              1     'h1       
  pwrite               integral              1     'h0       
  paddr                integral              32    'hbc751f56
  pwdata               integral              32    'he2d21352
  apb_read_data_out    integral              32    'hcca4dd2c
  apb_read_data_valid  integral              1     'h1       
-------------------------------------------------------------
the value of slave error is 1
UVM_INFO ../uvm_testbench/apb_sequence/apb_sequence_slave_rw.sv(22) @ 790000: uvm_test_top.env.aps.seqr_s@@slseq [apb_slave_fixed_response_seq] slave sequence completed
UVM_INFO ../uvm_testbench/apb_agent/apb_driver.sv(50) @ 790000: uvm_test_top.env.apj.dri [apb_driver_jtag] penable went low for next transaction
UVM_INFO ../uvm_testbench/apb_agent/apb_driver.sv(51) @ 790000: uvm_test_top.env.apj.dri [apb_driver_jtag] transaction completed
UVM_INFO ../uvm_testbench/apb_sequence/apb_sequence_write.sv(65) @ 790000: uvm_test_top.env.apj.seqr@@jseq [apb_jtag_write_sequence] jtag sequence completed
UVM_INFO ../uvm_testbench/apb_sequence/apb_sequence_write.sv(55) @ 790000: uvm_test_top.env.apj.seqr@@jseq [apb_jtag_write_sequence] in sequene body
UVM_INFO ../uvm_testbench/apb_sequence/apb_sequence_slave_rw.sv(13) @ 790000: uvm_test_top.env.aps.seqr_s@@slseq [apb_slave_fixed_response_seq] in sequence body
UVM_INFO ../uvm_testbench/apb_agent/apb_driver.sv(24) @ 790000: uvm_test_top.env.apj.dri [apb_driver_jtag] write instructions from sequence received given
-----------------------------------------------------------------------------------------
Name                           Type                  Size  Value                         
-----------------------------------------------------------------------------------------
write_transaction              apb_jtag_transaction  -     @4811                         
  transfer                     integral              1     'h1                           
  read                         integral              1     'h0                           
  write                        integral              1     'h1                           
  apb_paddr                    integral              32    'hc3c037e5                    
  apb_write_data               integral              32    'hdbc27b0a                    
  prdata                       integral              32    'h0                           
  pready                       integral              1     'h0                           
  pslverr                      integral              1     'h0                           
  psel                         integral              1     'h0                           
  pwrite                       integral              1     'h0                           
  paddr                        integral              32    'h0                           
  pwdata                       integral              32    'h0                           
  apb_read_data_out            integral              32    'h0                           
  apb_read_data_valid          integral              1     'h0                           
  begin_time                   time                  64    790000                        
  depth                        int                   32    'd2                           
  parent sequence (name)       string                4     jseq                          
  parent sequence (full name)  string                30    uvm_test_top.env.apj.seqr.jseq
  sequencer                    string                25    uvm_test_top.env.apj.seqr     
-----------------------------------------------------------------------------------------
UVM_INFO ../uvm_testbench/apb_agent/apb_driver.sv(33) @ 790000: uvm_test_top.env.apj.dri [apb_driver_jtag] write instructions given
UVM_INFO ../uvm_testbench/apb_agent/apb_driver.sv(38) @ 790000: uvm_test_top.env.apj.dri [apb_driver_jtag] penable went low
UVM_INFO ../uvm_testbench/apb_agent/apb_driver_slave.sv(25) @ 790000: uvm_test_top.env.aps.dri_s [apb_slave_driver] psel _driver running
UVM_INFO ../uvm_testbench/apb_agent/apb_driver_slave.sv(32) @ 810000: uvm_test_top.env.aps.dri_s [apb_slave_driver] psel detected high by slave
UVM_INFO ../uvm_testbench/apb_agent/apb_monitor.sv(62) @ 810000: uvm_test_top.env.apj.mon [apb_monitor] from monitor after sampling
-------------------------------------------------------------
Name                   Type                  Size  Value     
-------------------------------------------------------------
trans                  apb_jtag_transaction  -     @4798     
  transfer             integral              1     'h1       
  read                 integral              1     'h0       
  write                integral              1     'h1       
  apb_paddr            integral              32    'hc3c037e5
  apb_write_data       integral              32    'hdbc27b0a
  prdata               integral              32    'hcca4dd2c
  pready               integral              1     'h0       
  pslverr              integral              1     'h0       
  psel                 integral              1     'h1       
  pwrite               integral              1     'h0       
  paddr                integral              32    'hc3c037e5
  pwdata               integral              32    'hdbc27b0a
  apb_read_data_out    integral              32    'hcca4dd2c
  apb_read_data_valid  integral              1     'h1       
-------------------------------------------------------------
UVM_INFO ../uvm_testbench/apb_env/apb_scoreboard.sv(22) @ 810000: uvm_test_top.env.scb [apb_scoreboard] write operation performed successfully apb_write_data = dbc27b0a,  apb_pwdata = dbc27b0a
UVM_INFO ../uvm_testbench/apb_agent/apb_driver_slave.sv(38) @ 810000: uvm_test_top.env.aps.dri_s [apb_slave_driver] high enable detected by slave
data written into slave at memory [c3c037e5] = dbc27b0a
UVM_INFO ../uvm_testbench/apb_agent/apb_driver.sv(43) @ 830000: uvm_test_top.env.apj.dri [apb_driver_jtag] penable went high
-------------------------------------------------------------
Name                   Type                  Size  Value     
-------------------------------------------------------------
trans                  apb_jtag_transaction  -     @4672     
  transfer             integral              1     'h1       
  read                 integral              1     'h0       
  write                integral              1     'h1       
  apb_paddr            integral              32    'hc3c037e5
  apb_write_data       integral              32    'hdbc27b0a
  prdata               integral              32    'hcca4dd2c
  pready               integral              1     'h0       
  pslverr              integral              1     'h0       
  psel                 integral              1     'h1       
  pwrite               integral              1     'h0       
  paddr                integral              32    'hc3c037e5
  pwdata               integral              32    'hdbc27b0a
  apb_read_data_out    integral              32    'h0       
  apb_read_data_valid  integral              1     'h0       
-------------------------------------------------------------
the value of slave error is 0
UVM_INFO ../uvm_testbench/apb_sequence/apb_sequence_slave_rw.sv(22) @ 830000: uvm_test_top.env.aps.seqr_s@@slseq [apb_slave_fixed_response_seq] slave sequence completed
UVM_INFO ../uvm_testbench/apb_agent/apb_driver.sv(50) @ 830000: uvm_test_top.env.apj.dri [apb_driver_jtag] penable went low for next transaction
UVM_INFO ../uvm_testbench/apb_agent/apb_driver.sv(51) @ 830000: uvm_test_top.env.apj.dri [apb_driver_jtag] transaction completed
UVM_INFO ../uvm_testbench/apb_sequence/apb_sequence_write.sv(65) @ 830000: uvm_test_top.env.apj.seqr@@jseq [apb_jtag_write_sequence] jtag sequence completed
UVM_INFO ../uvm_testbench/apb_sequence/apb_sequence_write.sv(55) @ 830000: uvm_test_top.env.apj.seqr@@jseq [apb_jtag_write_sequence] in sequene body
UVM_INFO ../uvm_testbench/apb_sequence/apb_sequence_slave_rw.sv(13) @ 830000: uvm_test_top.env.aps.seqr_s@@slseq [apb_slave_fixed_response_seq] in sequence body
UVM_INFO ../uvm_testbench/apb_agent/apb_driver.sv(24) @ 830000: uvm_test_top.env.apj.dri [apb_driver_jtag] write instructions from sequence received given
-----------------------------------------------------------------------------------------
Name                           Type                  Size  Value                         
-----------------------------------------------------------------------------------------
write_transaction              apb_jtag_transaction  -     @4819                         
  transfer                     integral              1     'h1                           
  read                         integral              1     'h1                           
  write                        integral              1     'h0                           
  apb_paddr                    integral              32    'h7ae673a                     
  apb_write_data               integral              32    'h70ae001c                    
  prdata                       integral              32    'h0                           
  pready                       integral              1     'h0                           
  pslverr                      integral              1     'h0                           
  psel                         integral              1     'h0                           
  pwrite                       integral              1     'h0                           
  paddr                        integral              32    'h0                           
  pwdata                       integral              32    'h0                           
  apb_read_data_out            integral              32    'h0                           
  apb_read_data_valid          integral              1     'h0                           
  begin_time                   time                  64    830000                        
  depth                        int                   32    'd2                           
  parent sequence (name)       string                4     jseq                          
  parent sequence (full name)  string                30    uvm_test_top.env.apj.seqr.jseq
  sequencer                    string                25    uvm_test_top.env.apj.seqr     
-----------------------------------------------------------------------------------------
UVM_INFO ../uvm_testbench/apb_agent/apb_driver.sv(33) @ 830000: uvm_test_top.env.apj.dri [apb_driver_jtag] write instructions given
UVM_INFO ../uvm_testbench/apb_agent/apb_driver.sv(38) @ 830000: uvm_test_top.env.apj.dri [apb_driver_jtag] penable went low
UVM_INFO ../uvm_testbench/apb_agent/apb_driver_slave.sv(25) @ 830000: uvm_test_top.env.aps.dri_s [apb_slave_driver] psel _driver running
UVM_INFO ../uvm_testbench/apb_agent/apb_driver_slave.sv(32) @ 850000: uvm_test_top.env.aps.dri_s [apb_slave_driver] psel detected high by slave
UVM_INFO ../uvm_testbench/apb_agent/apb_driver.sv(43) @ 870000: uvm_test_top.env.apj.dri [apb_driver_jtag] penable went high
UVM_INFO ../uvm_testbench/apb_agent/apb_driver_slave.sv(38) @ 930000: uvm_test_top.env.aps.dri_s [apb_slave_driver] high enable detected by slave
UVM_INFO ../uvm_testbench/apb_agent/apb_monitor.sv(62) @ 930000: uvm_test_top.env.apj.mon [apb_monitor] from monitor after sampling
-------------------------------------------------------------
Name                   Type                  Size  Value     
-------------------------------------------------------------
trans                  apb_jtag_transaction  -     @4672     
  transfer             integral              1     'h1       
  read                 integral              1     'h1       
  write                integral              1     'h0       
  apb_paddr            integral              32    'h7ae673a 
  apb_write_data       integral              32    'h70ae001c
  prdata               integral              32    'hcca4dd2c
  pready               integral              1     'h0       
  pslverr              integral              1     'h0       
  psel                 integral              1     'h1       
  pwrite               integral              1     'h0       
  paddr                integral              32    'h7ae673a 
  pwdata               integral              32    'hdbc27b0a
  apb_read_data_out    integral              32    'h6e67f4da
  apb_read_data_valid  integral              1     'h0       
-------------------------------------------------------------
UVM_ERROR ../uvm_testbench/apb_env/apb_scoreboard.sv(29) @ 930000: uvm_test_top.env.scb [apb_scoreboard]  write operation failed apb_read_data_out = 6e67f4da, apb.prdata = cca4dd2c
-------------------------------------------------------------
Name                   Type                  Size  Value     
-------------------------------------------------------------
trans                  apb_jtag_transaction  -     @4749     
  transfer             integral              1     'h1       
  read                 integral              1     'h1       
  write                integral              1     'h0       
  apb_paddr            integral              32    'h7ae673a 
  apb_write_data       integral              32    'h70ae001c
  prdata               integral              32    'h6e67f4da
  pready               integral              1     'h0       
  pslverr              integral              1     'h1       
  psel                 integral              1     'h1       
  pwrite               integral              1     'h0       
  paddr                integral              32    'h7ae673a 
  pwdata               integral              32    'h70ae001c
  apb_read_data_out    integral              32    'h6e67f4da
  apb_read_data_valid  integral              1     'h1       
-------------------------------------------------------------
the value of slave error is 1
UVM_INFO ../uvm_testbench/apb_sequence/apb_sequence_slave_rw.sv(22) @ 950000: uvm_test_top.env.aps.seqr_s@@slseq [apb_slave_fixed_response_seq] slave sequence completed
UVM_INFO ../uvm_testbench/apb_agent/apb_driver.sv(50) @ 950000: uvm_test_top.env.apj.dri [apb_driver_jtag] penable went low for next transaction
UVM_INFO ../uvm_testbench/apb_agent/apb_driver.sv(51) @ 950000: uvm_test_top.env.apj.dri [apb_driver_jtag] transaction completed
UVM_INFO ../uvm_testbench/apb_sequence/apb_sequence_write.sv(65) @ 950000: uvm_test_top.env.apj.seqr@@jseq [apb_jtag_write_sequence] jtag sequence completed
UVM_INFO ../uvm_testbench/apb_sequence/apb_sequence_write.sv(55) @ 950000: uvm_test_top.env.apj.seqr@@jseq [apb_jtag_write_sequence] in sequene body
UVM_INFO ../uvm_testbench/apb_sequence/apb_sequence_slave_rw.sv(13) @ 950000: uvm_test_top.env.aps.seqr_s@@slseq [apb_slave_fixed_response_seq] in sequence body
UVM_INFO ../uvm_testbench/apb_agent/apb_driver.sv(24) @ 950000: uvm_test_top.env.apj.dri [apb_driver_jtag] write instructions from sequence received given
-----------------------------------------------------------------------------------------
Name                           Type                  Size  Value                         
-----------------------------------------------------------------------------------------
write_transaction              apb_jtag_transaction  -     @4653                         
  transfer                     integral              1     'h1                           
  read                         integral              1     'h0                           
  write                        integral              1     'h1                           
  apb_paddr                    integral              32    'h64cf63a5                    
  apb_write_data               integral              32    'h97bb0c82                    
  prdata                       integral              32    'h0                           
  pready                       integral              1     'h0                           
  pslverr                      integral              1     'h0                           
  psel                         integral              1     'h0                           
  pwrite                       integral              1     'h0                           
  paddr                        integral              32    'h0                           
  pwdata                       integral              32    'h0                           
  apb_read_data_out            integral              32    'h0                           
  apb_read_data_valid          integral              1     'h0                           
  begin_time                   time                  64    950000                        
  depth                        int                   32    'd2                           
  parent sequence (name)       string                4     jseq                          
  parent sequence (full name)  string                30    uvm_test_top.env.apj.seqr.jseq
  sequencer                    string                25    uvm_test_top.env.apj.seqr     
-----------------------------------------------------------------------------------------
UVM_INFO ../uvm_testbench/apb_agent/apb_driver.sv(33) @ 950000: uvm_test_top.env.apj.dri [apb_driver_jtag] write instructions given
UVM_INFO ../uvm_testbench/apb_agent/apb_driver.sv(38) @ 950000: uvm_test_top.env.apj.dri [apb_driver_jtag] penable went low
UVM_INFO ../uvm_testbench/apb_agent/apb_driver_slave.sv(25) @ 950000: uvm_test_top.env.aps.dri_s [apb_slave_driver] psel _driver running
UVM_INFO ../uvm_testbench/apb_agent/apb_driver_slave.sv(32) @ 970000: uvm_test_top.env.aps.dri_s [apb_slave_driver] psel detected high by slave
UVM_INFO ../uvm_testbench/apb_agent/apb_monitor.sv(62) @ 970000: uvm_test_top.env.apj.mon [apb_monitor] from monitor after sampling
-------------------------------------------------------------
Name                   Type                  Size  Value     
-------------------------------------------------------------
trans                  apb_jtag_transaction  -     @4749     
  transfer             integral              1     'h1       
  read                 integral              1     'h0       
  write                integral              1     'h1       
  apb_paddr            integral              32    'h64cf63a5
  apb_write_data       integral              32    'h97bb0c82
  prdata               integral              32    'h6e67f4da
  pready               integral              1     'h0       
  pslverr              integral              1     'h0       
  psel                 integral              1     'h1       
  pwrite               integral              1     'h0       
  paddr                integral              32    'h64cf63a5
  pwdata               integral              32    'h97bb0c82
  apb_read_data_out    integral              32    'h6e67f4da
  apb_read_data_valid  integral              1     'h1       
-------------------------------------------------------------
UVM_INFO ../uvm_testbench/apb_env/apb_scoreboard.sv(22) @ 970000: uvm_test_top.env.scb [apb_scoreboard] write operation performed successfully apb_write_data = 97bb0c82,  apb_pwdata = 97bb0c82
UVM_INFO ../uvm_testbench/apb_agent/apb_driver.sv(43) @ 990000: uvm_test_top.env.apj.dri [apb_driver_jtag] penable went high
-------------------------------------------------------------
Name                   Type                  Size  Value     
-------------------------------------------------------------
trans                  apb_jtag_transaction  -     @4772     
  transfer             integral              1     'h1       
  read                 integral              1     'h0       
  write                integral              1     'h1       
  apb_paddr            integral              32    'h64cf63a5
  apb_write_data       integral              32    'h97bb0c82
  prdata               integral              32    'h6e67f4da
  pready               integral              1     'h0       
  pslverr              integral              1     'h0       
  psel                 integral              1     'h1       
  pwrite               integral              1     'h0       
  paddr                integral              32    'h64cf63a5
  pwdata               integral              32    'h97bb0c82
  apb_read_data_out    integral              32    'h0       
  apb_read_data_valid  integral              1     'h0       
-------------------------------------------------------------
UVM_INFO ../uvm_testbench/apb_agent/apb_monitor.sv(62) @ 1010000: uvm_test_top.env.apj.mon [apb_monitor] from monitor after sampling
-------------------------------------------------------------
Name                   Type                  Size  Value     
-------------------------------------------------------------
trans                  apb_jtag_transaction  -     @4772     
  transfer             integral              1     'h1       
  read                 integral              1     'h0       
  write                integral              1     'h1       
  apb_paddr            integral              32    'h64cf63a5
  apb_write_data       integral              32    'h97bb0c82
  prdata               integral              32    'h6e67f4da
  pready               integral              1     'h0       
  pslverr              integral              1     'h0       
  psel                 integral              1     'h1       
  pwrite               integral              1     'h0       
  paddr                integral              32    'h64cf63a5
  pwdata               integral              32    'h97bb0c82
  apb_read_data_out    integral              32    'h0       
  apb_read_data_valid  integral              1     'h0       
-------------------------------------------------------------
UVM_INFO ../uvm_testbench/apb_env/apb_scoreboard.sv(22) @ 1010000: uvm_test_top.env.scb [apb_scoreboard] write operation performed successfully apb_write_data = 97bb0c82,  apb_pwdata = 97bb0c82
UVM_INFO ../uvm_testbench/apb_agent/apb_driver_slave.sv(38) @ 1030000: uvm_test_top.env.aps.dri_s [apb_slave_driver] high enable detected by slave
data written into slave at memory [64cf63a5] = 97bb0c82
-------------------------------------------------------------
Name                   Type                  Size  Value     
-------------------------------------------------------------
trans                  apb_jtag_transaction  -     @4787     
  transfer             integral              1     'h1       
  read                 integral              1     'h0       
  write                integral              1     'h1       
  apb_paddr            integral              32    'h64cf63a5
  apb_write_data       integral              32    'h97bb0c82
  prdata               integral              32    'h6e67f4da
  pready               integral              1     'h0       
  pslverr              integral              1     'h0       
  psel                 integral              1     'h1       
  pwrite               integral              1     'h0       
  paddr                integral              32    'h64cf63a5
  pwdata               integral              32    'h97bb0c82
  apb_read_data_out    integral              32    'h0       
  apb_read_data_valid  integral              1     'h0       
-------------------------------------------------------------
UVM_INFO ../uvm_testbench/apb_agent/apb_monitor.sv(62) @ 1050000: uvm_test_top.env.apj.mon [apb_monitor] from monitor after sampling
-------------------------------------------------------------
Name                   Type                  Size  Value     
-------------------------------------------------------------
trans                  apb_jtag_transaction  -     @4787     
  transfer             integral              1     'h1       
  read                 integral              1     'h0       
  write                integral              1     'h1       
  apb_paddr            integral              32    'h64cf63a5
  apb_write_data       integral              32    'h97bb0c82
  prdata               integral              32    'h6e67f4da
  pready               integral              1     'h0       
  pslverr              integral              1     'h1       
  psel                 integral              1     'h1       
  pwrite               integral              1     'h0       
  paddr                integral              32    'h64cf63a5
  pwdata               integral              32    'h97bb0c82
  apb_read_data_out    integral              32    'h0       
  apb_read_data_valid  integral              1     'h0       
-------------------------------------------------------------
UVM_INFO ../uvm_testbench/apb_env/apb_scoreboard.sv(22) @ 1050000: uvm_test_top.env.scb [apb_scoreboard] write operation performed successfully apb_write_data = 97bb0c82,  apb_pwdata = 97bb0c82
the value of slave error is 1
UVM_INFO ../uvm_testbench/apb_sequence/apb_sequence_slave_rw.sv(22) @ 1050000: uvm_test_top.env.aps.seqr_s@@slseq [apb_slave_fixed_response_seq] slave sequence completed
UVM_INFO ../uvm_testbench/apb_agent/apb_driver.sv(50) @ 1050000: uvm_test_top.env.apj.dri [apb_driver_jtag] penable went low for next transaction
UVM_INFO ../uvm_testbench/apb_agent/apb_driver.sv(51) @ 1050000: uvm_test_top.env.apj.dri [apb_driver_jtag] transaction completed
UVM_INFO ../uvm_testbench/apb_sequence/apb_sequence_write.sv(65) @ 1050000: uvm_test_top.env.apj.seqr@@jseq [apb_jtag_write_sequence] jtag sequence completed
UVM_INFO ../uvm_testbench/apb_sequence/apb_sequence_write.sv(55) @ 1050000: uvm_test_top.env.apj.seqr@@jseq [apb_jtag_write_sequence] in sequene body
UVM_INFO ../uvm_testbench/apb_sequence/apb_sequence_slave_rw.sv(13) @ 1050000: uvm_test_top.env.aps.seqr_s@@slseq [apb_slave_fixed_response_seq] in sequence body
UVM_INFO ../uvm_testbench/apb_agent/apb_driver.sv(24) @ 1050000: uvm_test_top.env.apj.dri [apb_driver_jtag] write instructions from sequence received given
-----------------------------------------------------------------------------------------
Name                           Type                  Size  Value                         
-----------------------------------------------------------------------------------------
write_transaction              apb_jtag_transaction  -     @4658                         
  transfer                     integral              1     'h1                           
  read                         integral              1     'h1                           
  write                        integral              1     'h0                           
  apb_paddr                    integral              32    'he65977d4                    
  apb_write_data               integral              32    'hb8cfa778                    
  prdata                       integral              32    'h0                           
  pready                       integral              1     'h0                           
  pslverr                      integral              1     'h0                           
  psel                         integral              1     'h0                           
  pwrite                       integral              1     'h0                           
  paddr                        integral              32    'h0                           
  pwdata                       integral              32    'h0                           
  apb_read_data_out            integral              32    'h0                           
  apb_read_data_valid          integral              1     'h0                           
  begin_time                   time                  64    1050000                       
  depth                        int                   32    'd2                           
  parent sequence (name)       string                4     jseq                          
  parent sequence (full name)  string                30    uvm_test_top.env.apj.seqr.jseq
  sequencer                    string                25    uvm_test_top.env.apj.seqr     
-----------------------------------------------------------------------------------------
UVM_INFO ../uvm_testbench/apb_agent/apb_driver.sv(33) @ 1050000: uvm_test_top.env.apj.dri [apb_driver_jtag] write instructions given
UVM_INFO ../uvm_testbench/apb_agent/apb_driver.sv(38) @ 1050000: uvm_test_top.env.apj.dri [apb_driver_jtag] penable went low
UVM_INFO ../uvm_testbench/apb_agent/apb_driver_slave.sv(25) @ 1050000: uvm_test_top.env.aps.dri_s [apb_slave_driver] psel _driver running
-------------------------------------------------------------
Name                   Type                  Size  Value     
-------------------------------------------------------------
trans                  apb_jtag_transaction  -     @4636     
  transfer             integral              1     'h1       
  read                 integral              1     'h1       
  write                integral              1     'h0       
  apb_paddr            integral              32    'he65977d4
  apb_write_data       integral              32    'hb8cfa778
  prdata               integral              32    'h6e67f4da
  pready               integral              1     'h0       
  pslverr              integral              1     'h0       
  psel                 integral              1     'h1       
  pwrite               integral              1     'h0       
  paddr                integral              32    'he65977d4
  pwdata               integral              32    'h0       
  apb_read_data_out    integral              32    'h0       
  apb_read_data_valid  integral              1     'h0       
-------------------------------------------------------------
UVM_INFO ../uvm_testbench/apb_agent/apb_driver_slave.sv(32) @ 1070000: uvm_test_top.env.aps.dri_s [apb_slave_driver] psel detected high by slave
UVM_INFO ../uvm_testbench/apb_agent/apb_driver.sv(43) @ 1090000: uvm_test_top.env.apj.dri [apb_driver_jtag] penable went high
UVM_INFO ../uvm_testbench/apb_agent/apb_driver_slave.sv(38) @ 1130000: uvm_test_top.env.aps.dri_s [apb_slave_driver] high enable detected by slave
UVM_INFO ../uvm_testbench/apb_agent/apb_monitor.sv(62) @ 1130000: uvm_test_top.env.apj.mon [apb_monitor] from monitor after sampling
-------------------------------------------------------------
Name                   Type                  Size  Value     
-------------------------------------------------------------
trans                  apb_jtag_transaction  -     @4636     
  transfer             integral              1     'h1       
  read                 integral              1     'h1       
  write                integral              1     'h0       
  apb_paddr            integral              32    'he65977d4
  apb_write_data       integral              32    'hb8cfa778
  prdata               integral              32    'h6e67f4da
  pready               integral              1     'h0       
  pslverr              integral              1     'h0       
  psel                 integral              1     'h1       
  pwrite               integral              1     'h0       
  paddr                integral              32    'he65977d4
  pwdata               integral              32    'h0       
  apb_read_data_out    integral              32    'hbeb32013
  apb_read_data_valid  integral              1     'h0       
-------------------------------------------------------------
UVM_ERROR ../uvm_testbench/apb_env/apb_scoreboard.sv(29) @ 1130000: uvm_test_top.env.scb [apb_scoreboard]  write operation failed apb_read_data_out = beb32013, apb.prdata = 6e67f4da
-------------------------------------------------------------
Name                   Type                  Size  Value     
-------------------------------------------------------------
trans                  apb_jtag_transaction  -     @4750     
  transfer             integral              1     'h1       
  read                 integral              1     'h1       
  write                integral              1     'h0       
  apb_paddr            integral              32    'he65977d4
  apb_write_data       integral              32    'hb8cfa778
  prdata               integral              32    'hbeb32013
  pready               integral              1     'h0       
  pslverr              integral              1     'h1       
  psel                 integral              1     'h1       
  pwrite               integral              1     'h0       
  paddr                integral              32    'he65977d4
  pwdata               integral              32    'hb8cfa778
  apb_read_data_out    integral              32    'hbeb32013
  apb_read_data_valid  integral              1     'h1       
-------------------------------------------------------------
the value of slave error is 1
UVM_INFO ../uvm_testbench/apb_sequence/apb_sequence_slave_rw.sv(22) @ 1150000: uvm_test_top.env.aps.seqr_s@@slseq [apb_slave_fixed_response_seq] slave sequence completed
UVM_INFO ../uvm_testbench/apb_agent/apb_driver.sv(50) @ 1150000: uvm_test_top.env.apj.dri [apb_driver_jtag] penable went low for next transaction
UVM_INFO ../uvm_testbench/apb_agent/apb_driver.sv(51) @ 1150000: uvm_test_top.env.apj.dri [apb_driver_jtag] transaction completed
UVM_INFO ../uvm_testbench/apb_sequence/apb_sequence_write.sv(65) @ 1150000: uvm_test_top.env.apj.seqr@@jseq [apb_jtag_write_sequence] jtag sequence completed
UVM_INFO ../uvm_testbench/apb_sequence/apb_sequence_write.sv(55) @ 1150000: uvm_test_top.env.apj.seqr@@jseq [apb_jtag_write_sequence] in sequene body
UVM_INFO ../uvm_testbench/apb_sequence/apb_sequence_slave_rw.sv(13) @ 1150000: uvm_test_top.env.aps.seqr_s@@slseq [apb_slave_fixed_response_seq] in sequence body
UVM_INFO ../uvm_testbench/apb_agent/apb_driver.sv(24) @ 1150000: uvm_test_top.env.apj.dri [apb_driver_jtag] write instructions from sequence received given
-----------------------------------------------------------------------------------------
Name                           Type                  Size  Value                         
-----------------------------------------------------------------------------------------
write_transaction              apb_jtag_transaction  -     @4646                         
  transfer                     integral              1     'h1                           
  read                         integral              1     'h1                           
  write                        integral              1     'h0                           
  apb_paddr                    integral              32    'h7df61e30                    
  apb_write_data               integral              32    'hd7e60386                    
  prdata                       integral              32    'h0                           
  pready                       integral              1     'h0                           
  pslverr                      integral              1     'h0                           
  psel                         integral              1     'h0                           
  pwrite                       integral              1     'h0                           
  paddr                        integral              32    'h0                           
  pwdata                       integral              32    'h0                           
  apb_read_data_out            integral              32    'h0                           
  apb_read_data_valid          integral              1     'h0                           
  begin_time                   time                  64    1150000                       
  depth                        int                   32    'd2                           
  parent sequence (name)       string                4     jseq                          
  parent sequence (full name)  string                30    uvm_test_top.env.apj.seqr.jseq
  sequencer                    string                25    uvm_test_top.env.apj.seqr     
-----------------------------------------------------------------------------------------
UVM_INFO ../uvm_testbench/apb_agent/apb_driver.sv(33) @ 1150000: uvm_test_top.env.apj.dri [apb_driver_jtag] write instructions given
UVM_INFO ../uvm_testbench/apb_agent/apb_driver.sv(38) @ 1150000: uvm_test_top.env.apj.dri [apb_driver_jtag] penable went low
UVM_INFO ../uvm_testbench/apb_agent/apb_driver_slave.sv(25) @ 1150000: uvm_test_top.env.aps.dri_s [apb_slave_driver] psel _driver running
UVM_INFO ../uvm_testbench/apb_agent/apb_driver_slave.sv(32) @ 1170000: uvm_test_top.env.aps.dri_s [apb_slave_driver] psel detected high by slave
UVM_INFO ../uvm_testbench/apb_agent/apb_driver.sv(43) @ 1190000: uvm_test_top.env.apj.dri [apb_driver_jtag] penable went high
UVM_INFO ../uvm_testbench/apb_agent/apb_driver_slave.sv(38) @ 1270000: uvm_test_top.env.aps.dri_s [apb_slave_driver] high enable detected by slave
UVM_INFO ../uvm_testbench/apb_agent/apb_monitor.sv(62) @ 1270000: uvm_test_top.env.apj.mon [apb_monitor] from monitor after sampling
-------------------------------------------------------------
Name                   Type                  Size  Value     
-------------------------------------------------------------
trans                  apb_jtag_transaction  -     @4750     
  transfer             integral              1     'h1       
  read                 integral              1     'h1       
  write                integral              1     'h0       
  apb_paddr            integral              32    'h7df61e30
  apb_write_data       integral              32    'hd7e60386
  prdata               integral              32    'hbeb32013
  pready               integral              1     'h0       
  pslverr              integral              1     'h0       
  psel                 integral              1     'h1       
  pwrite               integral              1     'h0       
  paddr                integral              32    'h7df61e30
  pwdata               integral              32    'hb8cfa778
  apb_read_data_out    integral              32    'h313884a4
  apb_read_data_valid  integral              1     'h1       
-------------------------------------------------------------
UVM_ERROR ../uvm_testbench/apb_env/apb_scoreboard.sv(29) @ 1270000: uvm_test_top.env.scb [apb_scoreboard]  write operation failed apb_read_data_out = 313884a4, apb.prdata = beb32013
-------------------------------------------------------------
Name                   Type                  Size  Value     
-------------------------------------------------------------
trans                  apb_jtag_transaction  -     @4803     
  transfer             integral              1     'h1       
  read                 integral              1     'h1       
  write                integral              1     'h0       
  apb_paddr            integral              32    'h7df61e30
