xrun(64): 22.09-s003: (c) Copyright 1995-2022 Cadence Design Systems, Inc.
TOOL:	xrun(64)	22.09-s003: Started on Dec 27, 2024 at 09:18:19 IST
xrun
	-f compile_file.f
		../APB_RTL/APB_Master.v
		../uvm_testbench/apb_top/apb_interface.sv
		../uvm_testbench/apb_top/apb_test_pkg.sv
		../uvm_testbench/apb_test/apb_top.sv
	-uvmhome CDNS-1.1d
	+UVM_TESTNAME=apb_read_test
	-seed 28862
	-debug
	-access +rwc
	-covdut apb_master
	-covworkdir cov_work
	-logfile logs/20241227_091818_apb_read_test_28862/apb_read_test_None_20241227_091818.log
	+UVM_VERBOSITY=UVM_NONE
	-coverage all
	-covoverwrite

   User defined plus("+") options:
	+UVM_VERBOSITY=UVM_NONE

Loading snapshot worklib.apb_top:sv .................... Done
SVSEED set from command line: 28862
xmsim: *W,DSEM2009: This SystemVerilog design is simulated as per IEEE 1800-2009 SystemVerilog simulation semantics. Use -disable_sem2009 option for turning off SV 2009 simulation semantics.
xcelium> source /tools/cadence_march2021/XCELIUM2209/tools/xcelium/files/xmsimrc
xcelium> source /tools/cadence_march2021/XCELIUM2209/tools/methodology/UVM/CDNS-1.1d/additions/sv/files/tcl/uvm_sim.tcl
xcelium> run
----------------------------------------------------------------
CDNS-UVM-1.1d (22.09-s003)
(C) 2007-2013 Mentor Graphics Corporation
(C) 2007-2013 Cadence Design Systems, Inc.
(C) 2006-2013 Synopsys, Inc.
(C) 2011-2013 Cypress Semiconductor Corp.
----------------------------------------------------------------

  ***********       IMPORTANT RELEASE NOTES         ************

  You are using a version of the UVM library that has been compiled
  with `UVM_NO_DEPRECATED undefined.
  See http://www.eda.org/svdb/view.php?id=3313 for more details.

  You are using a version of the UVM library that has been compiled
  with `UVM_OBJECT_MUST_HAVE_CONSTRUCTOR undefined.
  See http://www.eda.org/svdb/view.php?id=3770 for more details.

      (Specify +UVM_NO_RELNOTES to turn off this notice)

UVM_INFO @ 0: reporter [RNTST] Running test apb_read_test...
the value of slave error is 0
-----------------------------------------------------------------------------------------
Name                           Type                  Size  Value                         
-----------------------------------------------------------------------------------------
write_transaction              apb_jtag_transaction  -     @4627                         
  transfer                     integral              1     'h1                           
  read                         integral              1     'h0                           
  write                        integral              1     'h1                           
  apb_paddr                    integral              32    'h1c3d0103                    
  apb_write_data               integral              32    'hd4241b3b                    
  prdata                       integral              32    'h0                           
  pready                       integral              1     'h0                           
  pslverr                      integral              1     'h0                           
  psel                         integral              1     'h0                           
  pwrite                       integral              1     'h0                           
  paddr                        integral              32    'h0                           
  pwdata                       integral              32    'h0                           
  apb_read_data_out            integral              32    'h0                           
  apb_read_data_valid          integral              1     'h0                           
  begin_time                   time                  64    30000                         
  depth                        int                   32    'd2                           
  parent sequence (name)       string                4     jseq                          
  parent sequence (full name)  string                30    uvm_test_top.env.apj.seqr.jseq
  sequencer                    string                25    uvm_test_top.env.apj.seqr     
-----------------------------------------------------------------------------------------
         0 -------------         0
-------------------------------------------------------------
Name                   Type                  Size  Value     
-------------------------------------------------------------
trans                  apb_jtag_transaction  -     @4660     
  transfer             integral              1     'h0       
  read                 integral              1     'h0       
  write                integral              1     'h1       
  apb_paddr            integral              32    'h1c3d0103
  apb_write_data       integral              32    'hd4241b3b
  prdata               integral              32    'h0       
  pready               integral              1     'h0       
  pslverr              integral              1     'h0       
  psel                 integral              1     'h1       
  pwrite               integral              1     'h0       
  paddr                integral              32    'h1c3d0103
  pwdata               integral              32    'hd4241b3b
  apb_read_data_out    integral              32    'h0       
  apb_read_data_valid  integral              1     'h0       
-------------------------------------------------------------
         0 -------------         0
-------------------------------------------------------------
Name                   Type                  Size  Value     
-------------------------------------------------------------
trans                  apb_jtag_transaction  -     @4719     
  transfer             integral              1     'h0       
  read                 integral              1     'h0       
  write                integral              1     'h1       
  apb_paddr            integral              32    'h1c3d0103
  apb_write_data       integral              32    'hd4241b3b
  prdata               integral              32    'h0       
  pready               integral              1     'h0       
  pslverr              integral              1     'h0       
  psel                 integral              1     'h1       
  pwrite               integral              1     'h0       
  paddr                integral              32    'h1c3d0103
  pwdata               integral              32    'hd4241b3b
  apb_read_data_out    integral              32    'h0       
  apb_read_data_valid  integral              1     'h0       
-------------------------------------------------------------
         0 -------------         0
-------------------------------------------------------------
Name                   Type                  Size  Value     
-------------------------------------------------------------
trans                  apb_jtag_transaction  -     @4762     
  transfer             integral              1     'h0       
  read                 integral              1     'h0       
  write                integral              1     'h1       
  apb_paddr            integral              32    'h1c3d0103
  apb_write_data       integral              32    'hd4241b3b
  prdata               integral              32    'h0       
  pready               integral              1     'h0       
  pslverr              integral              1     'h0       
  psel                 integral              1     'h1       
  pwrite               integral              1     'h0       
  paddr                integral              32    'h1c3d0103
  pwdata               integral              32    'hd4241b3b
  apb_read_data_out    integral              32    'h0       
  apb_read_data_valid  integral              1     'h0       
-------------------------------------------------------------
         0 -------------         0
-------------------------------------------------------------
Name                   Type                  Size  Value     
-------------------------------------------------------------
trans                  apb_jtag_transaction  -     @4696     
  transfer             integral              1     'h0       
  read                 integral              1     'h0       
  write                integral              1     'h1       
  apb_paddr            integral              32    'h1c3d0103
  apb_write_data       integral              32    'hd4241b3b
  prdata               integral              32    'h0       
  pready               integral              1     'h0       
  pslverr              integral              1     'h0       
  psel                 integral              1     'h1       
  pwrite               integral              1     'h0       
  paddr                integral              32    'h1c3d0103
  pwdata               integral              32    'hd4241b3b
  apb_read_data_out    integral              32    'h0       
  apb_read_data_valid  integral              1     'h0       
-------------------------------------------------------------
data written into slave at memory [1c3d0103] = d4241b3b
         0 -------------         0
-------------------------------------------------------------
Name                   Type                  Size  Value     
-------------------------------------------------------------
trans                  apb_jtag_transaction  -     @4727     
  transfer             integral              1     'h0       
  read                 integral              1     'h0       
  write                integral              1     'h1       
  apb_paddr            integral              32    'h1c3d0103
  apb_write_data       integral              32    'hd4241b3b
  prdata               integral              32    'h0       
  pready               integral              1     'h0       
  pslverr              integral              1     'h1       
  psel                 integral              1     'h1       
  pwrite               integral              1     'h0       
  paddr                integral              32    'h1c3d0103
  pwdata               integral              32    'hd4241b3b
  apb_read_data_out    integral              32    'h0       
  apb_read_data_valid  integral              1     'h0       
-------------------------------------------------------------
the value of slave error is 1

--- UVM Report catcher Summary ---


Number of demoted UVM_FATAL reports  :    0
Number of demoted UVM_ERROR reports  :    0
Number of demoted UVM_WARNING reports:    0
Number of caught UVM_FATAL reports   :    0
Number of caught UVM_ERROR reports   :    0
Number of caught UVM_WARNING reports :    0

--- UVM Report Summary ---

** Report counts by severity
UVM_INFO :    1
UVM_WARNING :    0
UVM_ERROR :    0
UVM_FATAL :    0
** Report counts by id
[RNTST]     1
Simulation complete via $finish(1) at time 230 NS + 57
/tools/cadence_march2021/XCELIUM2209/tools/methodology/UVM/CDNS-1.1d/sv/src/base/uvm_root.svh:457     $finish;
xcelium> exit

coverage setup:
  workdir  :  cov_work
  dutinst  :  apb_top.dut(apb_master)
  scope    :  scope
  testname :  test_sv28862

coverage files:
  model(design data) :  cov_work/scope/icc_4eb6f5eb_00000000.ucm (reused)
  data               :  cov_work/scope/test_sv28862/icc_4eb6f5eb_00000000.ucd
TOOL:	xrun(64)	22.09-s003: Exiting on Dec 27, 2024 at 09:18:19 IST  (total: 00:00:00)
